;$FILEVERSION=1.1
;$STARTTIME=46079.7146414352
;
;   Start time: 2/26/2026 17:09:05.020.0
;   Generated by PCAN-View v4.3.4.615
;
;   Message Number
;   |         Time Offset (ms)
;   |         |        Type
;   |         |        |        ID (hex)
;   |         |        |        |     Data Length
;   |         |        |        |     |   Data Bytes (hex) ...
;   |         |        |        |     |   |
;---+--   ----+----  --+--  ----+---  +  -+ -- -- -- -- -- -- --
     1)         0.3  Rx         008F  8  B5 F8 00 7D 02 00 00 10
     1)         0.3  Rx         008F  8  B5 F8 00 7D 02 00 00 10
    10)        10.2  Rx         008F  8  E8 F9 00 7D 02 00 00 10
    16)        20.2  Rx         008F  8  0F FA 00 7D 02 00 00 10
    24)        30.1  Rx         008F  8  52 FB 00 7D 02 00 00 10
    32)        40.0  Rx         008F  8  DC FC 00 7D 02 00 00 10
    41)        50.0  Rx         008F  8  81 FD 00 7D 02 00 00 10
    54)        59.9  Rx         008F  8  66 FE 00 7D 02 00 00 10
    62)        69.9  Rx         008F  8  67 F0 00 7D 02 00 00 10
    70)        79.8  Rx         008F  8  3A F1 00 7D 02 00 00 10
    77)        89.8  Rx         008F  8  DD F2 00 7D 02 00 00 10
    84)        99.7  Rx         008F  8  80 F3 00 7D 02 00 00 10
    90)       109.6  Rx         008F  8  0E F4 00 7D 02 00 00 10
    98)       119.5  Rx         008F  8  53 F5 00 7D 02 00 00 10
   107)       129.5  Rx         008F  8  B4 F6 00 7D 02 00 00 10
   116)       139.4  Rx         008F  8  E9 F7 00 7D 02 00 00 10
   123)       149.4  Rx         008F  8  B5 F8 00 7D 02 00 00 10
   133)       159.3  Rx         008F  8  E8 F9 00 7D 02 00 00 10
   143)       169.2  Rx         008F  8  0F FA 00 7D 02 00 00 10
   150)       179.2  Rx         008F  8  52 FB 00 7D 02 00 00 10
   157)       189.1  Rx         008F  8  DC FC 00 7D 02 00 00 10
   163)       199.0  Rx         008F  8  81 FD 00 7D 02 00 00 10
   172)       209.0  Rx         008F  8  66 FE 00 7D 02 00 00 10
   180)       218.9  Rx         008F  8  67 F0 00 7D 02 00 00 10
   191)       228.9  Rx         008F  8  3A F1 00 7D 02 00 00 10
   200)       238.8  Rx         008F  8  DD F2 00 7D 02 00 00 10
   209)       248.8  Rx         008F  8  80 F3 00 7D 02 00 00 10
   217)       258.7  Rx         008F  8  0E F4 00 7D 02 00 00 10
   223)       268.7  Rx         008F  8  53 F5 00 7D 02 00 00 10
   231)       278.6  Rx         008F  8  B4 F6 00 7D 02 00 00 10
   239)       288.5  Rx         008F  8  E9 F7 00 7D 02 00 00 10
   246)       298.5  Rx         008F  8  B5 F8 00 7D 02 00 00 10
   254)       308.4  Rx         008F  8  E8 F9 00 7D 02 00 00 10
   263)       318.4  Rx         008F  8  0F FA 00 7D 02 00 00 10
   272)       328.2  Rx         008F  8  52 FB 00 7D 02 00 00 10
   285)       338.2  Rx         008F  8  DC FC 00 7D 02 00 00 10
   294)       348.1  Rx         008F  8  81 FD 00 7D 02 00 00 10
   301)       358.1  Rx         008F  8  66 FE 00 7D 02 00 00 10
   309)       368.0  Rx         008F  8  67 F0 00 7D 02 00 00 10
   316)       378.0  Rx         008F  8  3A F1 00 7D 02 00 00 10
   323)       387.9  Rx         008F  8  DD F2 00 7D 02 00 00 10
   331)       397.9  Rx         008F  8  80 F3 00 7D 02 00 00 10
   341)       407.8  Rx         008F  8  0E F4 00 7D 02 00 00 10
   348)       417.7  Rx         008F  8  53 F5 00 7D 02 00 00 10
   357)       427.7  Rx         008F  8  B4 F6 00 7D 02 00 00 10
   363)       437.6  Rx         008F  8  E9 F7 00 7D 02 00 00 10
   370)       447.6  Rx         008F  8  B5 F8 00 7D 02 00 00 10
   380)       457.5  Rx         008F  8  E8 F9 00 7D 02 00 00 10
   388)       467.4  Rx         008F  8  0F FA 00 7D 02 00 00 10
   396)       477.4  Rx         008F  8  52 FB 00 7D 02 00 00 10
   406)       487.3  Rx         008F  8  DC FC 00 7D 02 00 00 10
   414)       497.2  Rx         008F  8  81 FD 00 7D 02 00 00 10
   421)       507.2  Rx         008F  8  66 FE 00 7D 02 00 00 10
   432)       517.1  Rx         008F  8  67 F0 00 7D 02 00 00 10
   439)       527.0  Rx         008F  8  3A F1 00 7D 02 00 00 10
   445)       536.9  Rx         008F  8  DD F2 00 7D 02 00 00 10
   452)       546.9  Rx         008F  8  80 F3 00 7D 02 00 00 10
   461)       556.8  Rx         008F  8  0E F4 00 7D 02 00 00 10
   469)       566.8  Rx         008F  8  53 F5 00 7D 02 00 00 10
   479)       576.7  Rx         008F  8  B4 F6 00 7D 02 00 00 10
   489)       586.6  Rx         008F  8  E9 F7 00 7D 02 00 00 10
   497)       596.5  Rx         008F  8  B5 F8 00 7D 02 00 00 10
   506)       606.5  Rx         008F  8  E8 F9 00 7D 02 00 00 10
   512)       616.4  Rx         008F  8  0F FA 00 7D 02 00 00 10
   518)       626.4  Rx         008F  8  52 FB 00 7D 02 00 00 10
   527)       636.3  Rx         008F  8  DC FC 00 7D 02 00 00 10
   535)       646.2  Rx         008F  8  81 FD 00 7D 02 00 00 10
   542)       656.1  Rx         008F  8  66 FE 00 7D 02 00 00 10
   552)       666.1  Rx         008F  8  67 F0 00 7D 02 00 00 10
   560)       676.0  Rx         008F  8  3A F1 00 7D 02 00 00 10
   568)       685.9  Rx         008F  8  DD F2 00 7D 02 00 00 10
   578)       695.9  Rx         008F  8  80 F3 00 7D 02 00 00 10
   585)       705.8  Rx         008F  8  0E F4 00 7D 02 00 00 10
   592)       716.0  Rx         008F  8  53 F5 00 7D 02 00 00 10
   602)       725.6  Rx         008F  8  B4 F6 00 7D 02 00 00 10
   609)       735.8  Rx         008F  8  E9 F7 00 7D 02 00 00 10
   616)       745.7  Rx         008F  8  B5 F8 00 7D 02 00 00 10
   626)       755.7  Rx         008F  8  E8 F9 00 7D 02 00 00 10
   636)       765.6  Rx         008F  8  0F FA 00 7D 02 00 00 10
   644)       775.5  Rx         008F  8  52 FB 00 7D 02 00 00 10
   651)       785.5  Rx         008F  8  DC FC 00 7D 02 00 00 10
   657)       795.4  Rx         008F  8  81 FD 00 7D 02 00 00 10
   665)       805.4  Rx         008F  8  66 FE 00 7D 02 00 00 10
   673)       815.3  Rx         008F  8  67 F0 00 7D 02 00 00 10
   679)       825.0  Rx         008F  8  3A F1 00 7D 02 00 00 10
   688)       835.2  Rx         008F  8  DD F2 00 7D 02 00 00 10
   698)       845.1  Rx         008F  8  80 F3 00 7D 02 00 00 10
   705)       855.0  Rx         008F  8  0E F4 00 7D 02 00 00 10
   716)       864.9  Rx         008F  8  53 F5 00 7D 02 00 00 10
   722)       874.6  Rx         008F  8  B4 F6 00 7D 02 00 00 10
   729)       884.6  Rx         008F  8  E9 F7 00 7D 02 00 00 10
   735)       894.5  Rx         008F  8  B5 F8 00 7D 02 00 00 10
   743)       904.5  Rx         008F  8  E8 F9 00 7D 02 00 00 10
   750)       914.4  Rx         008F  8  0F FA 00 7D 02 00 00 10
   759)       924.4  Rx         008F  8  52 FB 00 7D 02 00 00 10
   768)       934.3  Rx         008F  8  DC FC 00 7D 02 00 00 10
   776)       944.3  Rx         008F  8  81 FD 00 7D 02 00 00 10
   786)       954.2  Rx         008F  8  66 FE 00 7D 02 00 00 10
   796)       964.2  Rx         008F  8  67 F0 00 7D 02 00 00 10
   802)       974.1  Rx         008F  8  3A F1 00 7D 02 00 00 10
   808)       984.0  Rx         008F  8  DD F2 00 7D 02 00 00 10
   818)       994.0  Rx         008F  8  80 F3 00 7D 02 00 00 10
   826)      1003.9  Rx         008F  8  0E F4 00 7D 02 00 00 10
   835)      1013.9  Rx         008F  8  53 F5 00 7D 02 00 00 10
   843)      1023.9  Rx         008F  8  B4 F6 00 7D 02 00 00 10
   851)      1033.8  Rx         008F  8  E9 F7 00 7D 02 00 00 10
   861)      1043.7  Rx         008F  8  B5 F8 00 7D 02 00 00 10
   867)      1053.7  Rx         008F  8  E8 F9 00 7D 02 00 00 10
   877)      1063.6  Rx         008F  8  0F FA 00 7D 02 00 00 10
   883)      1073.6  Rx         008F  8  52 FB 00 7D 02 00 00 10
   892)      1083.5  Rx         008F  8  DC FC 00 7D 02 00 00 10
   899)      1093.4  Rx         008F  8  81 FD 00 7D 02 00 00 10
   909)      1103.4  Rx         008F  8  66 FE 00 7D 02 00 00 10
   919)      1113.3  Rx         008F  8  67 F0 00 7D 02 00 00 10
   928)      1123.3  Rx         008F  8  3A F1 00 7D 02 00 00 10
   935)      1133.2  Rx         008F  8  DD F2 00 7D 02 00 00 10
   941)      1143.2  Rx         008F  8  80 F3 00 7D 02 00 00 10
   949)      1153.1  Rx         008F  8  0E F4 00 7D 02 00 00 10
   958)      1163.1  Rx         008F  8  53 F5 00 7D 02 00 00 10
   965)      1173.0  Rx         008F  8  B4 F6 00 7D 02 00 00 10
   974)      1182.9  Rx         008F  8  E9 F7 00 7D 02 00 00 10
   984)      1192.9  Rx         008F  8  B5 F8 00 7D 02 00 00 10
   994)      1202.8  Rx         008F  8  E8 F9 00 7D 02 00 00 10
  1004)      1212.7  Rx         008F  8  0F FA 00 7D 02 00 00 10
  1012)      1222.7  Rx         008F  8  52 FB 00 7D 02 00 00 10
  1018)      1232.6  Rx         008F  8  DC FC 00 7D 02 00 00 10
  1026)      1242.5  Rx         008F  8  81 FD 00 7D 02 00 00 10
  1034)      1252.4  Rx         008F  8  66 FE 00 7D 02 00 00 10
  1042)      1262.4  Rx         008F  8  67 F0 00 7D 02 00 00 10
  1051)      1272.3  Rx         008F  8  3A F1 00 7D 02 00 00 10
  1061)      1282.3  Rx         008F  8  DD F2 00 7D 02 00 00 10
  1068)      1292.2  Rx         008F  8  80 F3 00 7D 02 00 00 10
  1077)      1302.2  Rx         008F  8  0E F4 00 7D 02 00 00 10
  1083)      1312.1  Rx         008F  8  53 F5 00 7D 02 00 00 10
  1090)      1322.1  Rx         008F  8  B4 F6 00 7D 02 00 00 10
  1097)      1332.0  Rx         008F  8  E9 F7 00 7D 02 00 00 10
  1104)      1342.0  Rx         008F  8  B5 F8 00 7D 02 00 00 10
  1111)      1351.9  Rx         008F  8  E8 F9 00 7D 02 00 00 10
  1122)      1361.9  Rx         008F  8  0F FA 00 7D 02 00 00 10
  1130)      1371.8  Rx         008F  8  52 FB 00 7D 02 00 00 10
  1137)      1381.8  Rx         008F  8  DC FC 00 7D 02 00 00 10
  1148)      1391.7  Rx         008F  8  81 FD 00 7D 02 00 00 10
  1155)      1401.6  Rx         008F  8  66 FE 00 7D 02 00 00 10
  1161)      1411.5  Rx         008F  8  67 F0 00 7D 02 00 00 10
  1169)      1421.5  Rx         008F  8  3A F1 00 7D 02 00 00 10
  1177)      1431.4  Rx         008F  8  DD F2 00 7D 02 00 00 10
  1187)      1441.4  Rx         008F  8  80 F3 00 7D 02 00 00 10
  1196)      1451.3  Rx         008F  8  0E F4 00 7D 02 00 00 10
  1205)      1461.2  Rx         008F  8  53 F5 00 7D 02 00 00 10
  1213)      1471.2  Rx         008F  8  B4 F6 00 7D 02 00 00 10
  1222)      1481.1  Rx         008F  8  E9 F7 00 7D 02 00 00 10
  1228)      1491.0  Rx         008F  8  B5 F8 00 7D 02 00 00 10
  1234)      1501.0  Rx         008F  8  E8 F9 00 7D 02 00 00 10
  1242)      1510.9  Rx         008F  8  0F FA 00 7D 02 00 00 10
  1250)      1520.9  Rx         008F  8  52 FB 00 7D 02 00 00 10
  1257)      1530.8  Rx         008F  8  DC FC 00 7D 02 00 00 10
  1267)      1540.8  Rx         008F  8  81 FD 00 7D 02 00 00 10
  1275)      1550.7  Rx         008F  8  66 FE 00 7D 02 00 00 10
  1284)      1560.6  Rx         008F  8  67 F0 00 7D 02 00 00 10
  1294)      1570.6  Rx         008F  8  3A F1 00 7D 02 00 00 10
  1300)      1580.5  Rx         008F  8  DD F2 00 7D 02 00 00 10
  1306)      1590.4  Rx         008F  8  80 F3 00 7D 02 00 00 10
  1315)      1600.4  Rx         008F  8  0E F4 00 7D 02 00 00 10
  1322)      1610.3  Rx         008F  8  53 F5 00 7D 02 00 00 10
  1329)      1620.2  Rx         008F  8  B4 F6 00 7D 02 00 00 10
  1338)      1630.2  Rx         008F  8  E9 F7 00 7D 02 00 00 10
  1349)      1640.1  Rx         008F  8  B5 F8 00 7D 02 00 00 10
  1357)      1650.0  Rx         008F  8  E8 F9 00 7D 02 00 00 10
  1366)      1660.0  Rx         008F  8  0F FA 00 7D 02 00 00 10
  1373)      1669.9  Rx         008F  8  52 FB 00 7D 02 00 00 10
  1381)      1679.9  Rx         008F  8  DC FC 00 7D 02 00 00 10
  1389)      1689.8  Rx         008F  8  81 FD 00 7D 02 00 00 10
  1396)      1699.7  Rx         008F  8  66 FE 00 7D 02 00 00 10
  1404)      1709.7  Rx         008F  8  67 F0 00 7D 02 00 00 10
  1414)      1719.6  Rx         008F  8  3A F1 00 7D 02 00 00 10
  1421)      1729.6  Rx         008F  8  DD F2 00 7D 02 00 00 10
  1431)      1739.5  Rx         008F  8  80 F3 00 7D 02 00 00 10
  1438)      1749.4  Rx         008F  8  0E F4 00 7D 02 00 00 10
  1446)      1759.4  Rx         008F  8  53 F5 00 7D 02 00 00 10
  1452)      1769.3  Rx         008F  8  B4 F6 00 7D 02 00 00 10
  1460)      1779.2  Rx         008F  8  E9 F7 00 7D 02 00 00 10
  1468)      1789.1  Rx         008F  8  B5 F8 00 7D 02 00 00 10
  1477)      1799.1  Rx         008F  8  E8 F9 00 7D 02 00 00 10
  1486)      1809.0  Rx         008F  8  0F FA 00 7D 02 00 00 10
  1493)      1819.0  Rx         008F  8  52 FB 00 7D 02 00 00 10
  1501)      1828.9  Rx         008F  8  DC FC 00 7D 02 00 00 10
  1509)      1838.9  Rx         008F  8  81 FD 00 7D 02 00 00 10
  1515)      1848.8  Rx         008F  8  66 FE 00 7D 02 00 00 10
  1523)      1858.8  Rx         008F  8  67 F0 00 7D 02 00 00 10
  1532)      1868.7  Rx         008F  8  3A F1 00 7D 02 00 00 10
  1539)      1878.7  Rx         008F  8  DD F2 00 7D 02 00 00 10
  1548)      1888.6  Rx         008F  8  80 F3 00 7D 02 00 00 10
  1557)      1898.5  Rx         008F  8  0E F4 00 7D 02 00 00 10
  1566)      1908.5  Rx         008F  8  53 F5 00 7D 02 00 00 10
  1578)      1918.4  Rx         008F  8  B4 F6 00 7D 02 00 00 10
  1585)      1928.4  Rx         008F  8  E9 F7 00 7D 02 00 00 10
  1592)      1938.3  Rx         008F  8  B5 F8 00 7D 02 00 00 10
  1598)      1948.3  Rx         008F  8  E8 F9 00 7D 02 00 00 10
  1609)      1958.2  Rx         008F  8  0F FA 00 7D 02 00 00 10
  1615)      1968.2  Rx         008F  8  52 FB 00 7D 02 00 00 10
  1624)      1978.1  Rx         008F  8  DC FC 00 7D 02 00 00 10
  1635)      1988.1  Rx         008F  8  81 FD 00 7D 02 00 00 10
  1643)      1997.9  Rx         008F  8  66 FE 00 7D 02 00 00 10
  1650)      2007.9  Rx         008F  8  67 F0 00 7D 02 00 00 10
  1657)      2017.9  Rx         008F  8  3A F1 00 7D 02 00 00 10
  1663)      2027.8  Rx         008F  8  DD F2 00 7D 02 00 00 10
  1671)      2037.7  Rx         008F  8  80 F3 00 7D 02 00 00 10
  1679)      2047.7  Rx         008F  8  0E F4 00 7D 02 00 00 10
  1689)      2057.6  Rx         008F  8  53 F5 00 7D 02 00 00 10
  1698)      2067.5  Rx         008F  8  B4 F6 00 7D 02 00 00 10
  1707)      2077.4  Rx         008F  8  E9 F7 00 7D 02 00 00 10
  1717)      2087.4  Rx         008F  8  B5 F8 00 7D 02 00 00 10
  1724)      2097.3  Rx         008F  8  E8 F9 00 7D 02 00 00 10
  1731)      2107.3  Rx         008F  8  0F FA 00 7D 02 00 00 10
  1738)      2117.2  Rx         008F  8  52 FB 00 7D 02 00 00 10
  1745)      2127.1  Rx         008F  8  DC FC 00 7D 02 00 00 10
  1755)      2137.1  Rx         008F  8  81 FD 00 7D 02 00 00 10
  1763)      2147.0  Rx         008F  8  66 FE 00 7D 02 00 00 10
  1775)      2157.0  Rx         008F  8  67 F0 00 7D 02 00 00 10
  1784)      2166.9  Rx         008F  8  3A F1 00 7D 02 00 00 10
  1792)      2176.8  Rx         008F  8  DD F2 00 7D 02 00 00 10
  1799)      2186.8  Rx         008F  8  80 F3 00 7D 02 00 00 10
  1807)      2196.9  Rx         008F  8  0E F4 00 7D 02 00 00 10
  1813)      2206.6  Rx         008F  8  53 F5 00 7D 02 00 00 10
  1820)      2216.5  Rx         008F  8  B4 F6 00 7D 02 00 00 10
  1828)      2226.5  Rx         008F  8  E9 F7 00 7D 02 00 00 10
  1838)      2236.4  Rx         008F  8  B5 F8 00 7D 02 00 00 10
  1846)      2246.3  Rx         008F  8  E8 F9 00 7D 02 00 00 10
  1854)      2256.3  Rx         008F  8  0F FA 00 7D 02 00 00 10
  1865)      2266.2  Rx         008F  8  52 FB 00 7D 02 00 00 10
  1872)      2276.2  Rx         008F  8  DC FC 00 7D 02 00 00 10
  1879)      2286.1  Rx         008F  8  81 FD 00 7D 02 00 00 10
  1885)      2296.1  Rx         008F  8  66 FE 00 7D 02 00 00 10
  1892)      2306.3  Rx         008F  8  67 F0 00 7D 02 00 00 10
  1901)      2316.0  Rx         008F  8  3A F1 00 7D 02 00 00 10
  1909)      2325.9  Rx         008F  8  DD F2 00 7D 02 00 00 10
  1917)      2335.9  Rx         008F  8  80 F3 00 7D 02 00 00 10
  1926)      2345.8  Rx         008F  8  0E F4 00 7D 02 00 00 10
  1934)      2355.7  Rx         008F  8  53 F5 00 7D 02 00 00 10
  1941)      2365.9  Rx         008F  8  B4 F6 00 7D 02 00 00 10
  1948)      2375.8  Rx         008F  8  E9 F7 00 7D 02 00 00 10
  1956)      2385.8  Rx         008F  8  B5 F8 00 7D 02 00 00 10
  1965)      2395.7  Rx         008F  8  E8 F9 00 7D 02 00 00 10
  1974)      2405.6  Rx         008F  8  0F FA 00 7D 02 00 00 10
  1982)      2415.4  Rx         008F  8  52 FB 00 7D 02 00 00 10
  1991)      2425.5  Rx         008F  8  DC FC 00 7D 02 00 00 10
  2000)      2435.5  Rx         008F  8  81 FD 00 7D 02 00 00 10
  2008)      2445.4  Rx         008F  8  66 FE 00 7D 02 00 00 10
  2014)      2455.4  Rx         008F  8  67 F0 00 7D 02 00 00 10
  2022)      2465.3  Rx         008F  8  3A F1 00 7D 02 00 00 10
  2030)      2475.3  Rx         008F  8  DD F2 00 7D 02 00 00 10
  2037)      2485.2  Rx         008F  8  80 F3 00 7D 02 00 00 10
  2045)      2495.2  Rx         008F  8  0E F4 00 7D 02 00 00 10
  2054)      2505.1  Rx         008F  8  53 F5 00 7D 02 00 00 10
  2064)      2515.0  Rx         008F  8  B4 F6 00 7D 02 00 00 10
  2073)      2525.0  Rx         008F  8  E9 F7 00 7D 02 00 00 10
  2079)      2534.9  Rx         008F  8  B5 F8 00 7D 02 00 00 10
  2085)      2544.8  Rx         008F  8  E8 F9 00 7D 02 00 00 10
  2092)      2554.6  Rx         008F  8  0F FA 00 7D 02 00 00 10
  2101)      2564.5  Rx         008F  8  52 FB 00 7D 02 00 00 10
  2108)      2574.4  Rx         008F  8  DC FC 00 7D 02 00 00 10
  2117)      2584.4  Rx         008F  8  81 FD 00 7D 02 00 00 10
  2126)      2594.3  Rx         008F  8  66 FE 00 7D 02 00 00 10
  2133)      2604.2  Rx         008F  8  67 F0 00 7D 02 00 00 10
  2144)      2614.2  Rx         008F  8  3A F1 00 7D 02 00 00 10
  2151)      2624.1  Rx         008F  8  DD F2 00 7D 02 00 00 10
  2159)      2634.0  Rx         008F  8  80 F3 00 7D 02 00 00 10
  2167)      2644.0  Rx         008F  8  0E F4 00 7D 02 00 00 10
  2174)      2653.9  Rx         008F  8  53 F5 00 7D 02 00 00 10
  2182)      2663.9  Rx         008F  8  B4 F6 00 7D 02 00 00 10
  2192)      2673.8  Rx         008F  8  E9 F7 00 7D 02 00 00 10
  2202)      2683.7  Rx         008F  8  B5 F8 00 7D 02 00 00 10
  2209)      2693.7  Rx         008F  8  E8 F9 00 7D 02 00 00 10
  2217)      2703.6  Rx         008F  8  0F FA 00 7D 02 00 00 10
  2226)      2713.6  Rx         008F  8  52 FB 00 7D 02 00 00 10
  2232)      2723.5  Rx         008F  8  DC FC 00 7D 02 00 00 10
  2238)      2733.5  Rx         008F  8  81 FD 00 7D 02 00 00 10
  2247)      2743.4  Rx         008F  8  66 FE 00 7D 02 00 00 10
  2254)      2753.3  Rx         008F  8  67 F0 00 7D 02 00 00 10
  2265)      2763.2  Rx         008F  8  3A F1 00 7D 02 00 00 10
  2273)      2773.2  Rx         008F  8  DD F2 00 7D 02 00 00 10
  2281)      2783.1  Rx         008F  8  80 F3 00 7D 02 00 00 10
  2291)      2793.0  Rx         008F  8  0E F4 00 7D 02 00 00 10
  2298)      2802.9  Rx         008F  8  53 F5 00 7D 02 00 00 10
  2304)      2812.9  Rx         008F  8  B4 F6 00 7D 02 00 00 10
  2310)      2822.8  Rx         008F  8  E9 F7 00 7D 02 00 00 10
  2320)      2832.8  Rx         008F  8  B5 F8 00 7D 02 00 00 10
  2326)      2842.7  Rx         008F  8  E8 F9 00 7D 02 00 00 10
  2335)      2852.6  Rx         008F  8  0F FA 00 7D 02 00 00 10
  2346)      2862.5  Rx         008F  8  52 FB 00 7D 02 00 00 10
  2355)      2872.5  Rx         008F  8  DC FC 00 7D 02 00 00 10
  2363)      2882.4  Rx         008F  8  81 FD 00 7D 02 00 00 10
  2370)      2892.3  Rx         008F  8  66 FE 00 7D 02 00 00 10
  2376)      2902.2  Rx         008F  8  67 F0 00 7D 02 00 00 10
  2385)      2912.2  Rx         008F  8  3A F1 00 7D 02 00 00 10
  2393)      2922.2  Rx         008F  8  DD F2 00 7D 02 00 00 10
  2400)      2932.1  Rx         008F  8  80 F3 00 7D 02 00 00 10
  2409)      2942.0  Rx         008F  8  0E F4 00 7D 02 00 00 10
  2418)      2951.9  Rx         008F  8  53 F5 00 7D 02 00 00 10
  2429)      2961.9  Rx         008F  8  B4 F6 00 7D 02 00 00 10
  2436)      2971.8  Rx         008F  8  E9 F7 00 7D 02 00 00 10
  2443)      2981.8  Rx         008F  8  B5 F8 00 7D 02 00 00 10
  2451)      2991.7  Rx         008F  8  E8 F9 00 7D 02 00 00 10
  2458)      3001.6  Rx         008F  8  0F FA 00 7D 02 00 00 10
  2466)      3011.6  Rx         008F  8  52 FB 00 7D 02 00 00 10
  2473)      3021.5  Rx         008F  8  DC FC 00 7D 02 00 00 10
  2483)      3031.4  Rx         008F  8  81 FD 00 7D 02 00 00 10
  2491)      3041.4  Rx         008F  8  66 FE 00 7D 02 00 00 10
  2499)      3051.3  Rx         008F  8  67 F0 00 7D 02 00 00 10
  2509)      3061.2  Rx         008F  8  3A F1 00 7D 02 00 00 10
  2517)      3071.2  Rx         008F  8  DD F2 00 7D 02 00 00 10
  2523)      3081.1  Rx         008F  8  80 F3 00 7D 02 00 00 10
  2530)      3091.0  Rx         008F  8  0E F4 00 7D 02 00 00 10
  2539)      3100.9  Rx         008F  8  53 F5 00 7D 02 00 00 10
  2550)      3110.9  Rx         008F  8  B4 F6 00 7D 02 00 00 10
  2559)      3120.8  Rx         008F  8  E9 F7 00 7D 02 00 00 10
  2567)      3130.8  Rx         008F  8  B5 F8 00 7D 02 00 00 10
  2577)      3140.7  Rx         008F  8  E8 F9 00 7D 02 00 00 10
  2584)      3150.6  Rx         008F  8  0F FA 00 7D 02 00 00 10
  2593)      3160.6  Rx         008F  8  52 FB 00 7D 02 00 00 10
  2599)      3170.5  Rx         008F  8  DC FC 00 7D 02 00 00 10
  2606)      3180.4  Rx         008F  8  81 FD 00 7D 02 00 00 10
  2615)      3190.4  Rx         008F  8  66 FE 00 7D 02 00 00 10
  2623)      3200.3  Rx         008F  8  67 F0 00 7D 02 00 00 10
  2635)      3210.2  Rx         008F  8  3A F1 00 7D 02 00 00 10
  2644)      3220.2  Rx         008F  8  DD F2 00 7D 02 00 00 10
  2652)      3230.1  Rx         008F  8  80 F3 00 7D 02 00 00 10
  2658)      3240.0  Rx         008F  8  0E F4 00 7D 02 00 00 10
  2665)      3249.9  Rx         008F  8  53 F5 00 7D 02 00 00 10
  2673)      3259.9  Rx         008F  8  B4 F6 00 7D 02 00 00 10
  2681)      3269.8  Rx         008F  8  E9 F7 00 7D 02 00 00 10
  2689)      3279.8  Rx         008F  8  B5 F8 00 7D 02 00 00 10
  2697)      3289.7  Rx         008F  8  E8 F9 00 7D 02 00 00 10
  2705)      3299.6  Rx         008F  8  0F FA 00 7D 02 00 00 10
  2714)      3309.6  Rx         008F  8  52 FB 00 7D 02 00 00 10
  2723)      3319.5  Rx         008F  8  DC FC 00 7D 02 00 00 10
  2729)      3329.4  Rx         008F  8  81 FD 00 7D 02 00 00 10
  2737)      3339.3  Rx         008F  8  66 FE 00 7D 02 00 00 10
  2746)      3349.3  Rx         008F  8  67 F0 00 7D 02 00 00 10
  2755)      3359.2  Rx         008F  8  3A F1 00 7D 02 00 00 10
  2763)      3369.1  Rx         008F  8  DD F2 00 7D 02 00 00 10
  2771)      3379.1  Rx         008F  8  80 F3 00 7D 02 00 00 10
  2780)      3389.0  Rx         008F  8  0E F4 00 7D 02 00 00 10
  2790)      3398.9  Rx         008F  8  53 F5 00 7D 02 00 00 10
  2796)      3408.9  Rx         008F  8  B4 F6 00 7D 02 00 00 10
  2802)      3418.8  Rx         008F  8  E9 F7 00 7D 02 00 00 10
  2810)      3428.7  Rx         008F  8  B5 F8 00 7D 02 00 00 10
  2817)      3438.7  Rx         008F  8  E8 F9 00 7D 02 00 00 10
  2824)      3448.6  Rx         008F  8  0F FA 00 7D 02 00 00 10
  2834)      3458.5  Rx         008F  8  52 FB 00 7D 02 00 00 10
  2843)      3468.4  Rx         008F  8  DC FC 00 7D 02 00 00 10
  2850)      3478.4  Rx         008F  8  81 FD 00 7D 02 00 00 10
  2861)      3488.3  Rx         008F  8  66 FE 00 7D 02 00 00 10
  2868)      3498.2  Rx         008F  8  67 F0 00 7D 02 00 00 10
  2875)      3508.2  Rx         008F  8  3A F1 00 7D 02 00 00 10
  2882)      3518.1  Rx         008F  8  DD F2 00 7D 02 00 00 10
  2889)      3528.0  Rx         008F  8  80 F3 00 7D 02 00 00 10
  2896)      3538.0  Rx         008F  8  0E F4 00 7D 02 00 00 10
  2906)      3547.9  Rx         008F  8  53 F5 00 7D 02 00 00 10
  2915)      3557.8  Rx         008F  8  B4 F6 00 7D 02 00 00 10
  2922)      3567.8  Rx         008F  8  E9 F7 00 7D 02 00 00 10
  2932)      3577.7  Rx         008F  8  B5 F8 00 7D 02 00 00 10
  2940)      3587.6  Rx         008F  8  E8 F9 00 7D 02 00 00 10
  2947)      3597.5  Rx         008F  8  0F FA 00 7D 02 00 00 10
  2954)      3607.5  Rx         008F  8  52 FB 00 7D 02 00 00 10
  2962)      3617.4  Rx         008F  8  DC FC 00 7D 02 00 00 10
  2969)      3627.4  Rx         008F  8  81 FD 00 7D 02 00 00 10
  2979)      3637.3  Rx         008F  8  66 FE 00 7D 02 00 00 10
  2986)      3647.3  Rx         008F  8  67 F0 00 7D 02 00 00 10
  2995)      3657.2  Rx         008F  8  3A F1 00 7D 02 00 00 10
  3006)      3667.1  Rx         008F  8  DD F2 00 7D 02 00 00 10
  3012)      3677.0  Rx         008F  8  80 F3 00 7D 02 00 00 10
  3018)      3687.0  Rx         008F  8  0E F4 00 7D 02 00 00 10
  3026)      3696.9  Rx         008F  8  53 F5 00 7D 02 00 00 10
  3035)      3706.8  Rx         008F  8  B4 F6 00 7D 02 00 00 10
  3041)      3716.7  Rx         008F  8  E9 F7 00 7D 02 00 00 10
  3051)      3726.6  Rx         008F  8  B5 F8 00 7D 02 00 00 10
