;$FILEVERSION=1.1
;$STARTTIME=46079.7146414352
;
;   Start time: 2/26/2026 17:09:05.020.0
;   Generated by PCAN-View v4.3.4.615
;
;   Message Number
;   |         Time Offset (ms)
;   |         |        Type
;   |         |        |        ID (hex)
;   |         |        |        |     Data Length
;   |         |        |        |     |   Data Bytes (hex) ...
;   |         |        |        |     |   |
;---+--   ----+----  --+--  ----+---  +  -+ -- -- -- -- -- -- --
     1)         0.3  Rx         008F  8  B5 F8 00 7D 02 00 00 10
     8)         9.3  Rx         008F  8  17 FA 00 00 02 00 00 10
    12)        19.3  Rx         008F  8  4A FB 00 00 02 00 00 10
    21)        29.3  Rx         008F  8  C4 FC 00 00 02 00 00 10
    26)        39.3  Rx         008F  8  99 FD 00 00 02 00 00 10
    36)        49.3  Rx         008F  8  7E FE 00 00 02 00 00 10
    42)        59.5  Rx         008F  8  7F F0 00 00 02 00 00 10
    63)        69.3  Rx         008F  8  22 F1 00 00 02 00 00 10
    66)        79.3  Rx         008F  8  C5 F2 00 00 02 00 00 10
    75)        89.3  Rx         008F  8  98 F3 00 00 02 00 00 10
    79)        99.3  Rx         008F  8  16 F4 00 00 02 00 00 10
    88)       109.3  Rx         008F  8  4B F5 00 00 02 00 00 10
    94)       119.3  Rx         008F  8  AC F6 00 00 02 00 00 10
   104)       129.3  Rx         008F  8  F1 F7 00 00 02 00 00 10
   107)       139.3  Rx         008F  8  AD F8 00 00 02 00 00 10
   116)       149.3  Rx         008F  8  F0 F9 00 00 02 00 00 10
   121)       159.3  Rx         008F  8  17 FA 00 00 02 00 00 10
   141)       169.3  Rx         008F  8  4A FB 00 00 02 00 00 10
   144)       179.3  Rx         008F  8  C4 FC 00 00 02 00 00 10
   154)       189.3  Rx         008F  8  99 FD 00 00 02 00 00 10
   157)       199.3  Rx         008F  8  7E FE 00 00 02 00 00 10
   166)       209.3  Rx         008F  8  7F F0 00 00 02 00 00 10
   171)       219.3  Rx         008F  8  22 F1 00 00 02 00 00 10
   180)       229.3  Rx         008F  8  C5 F2 00 00 02 00 00 10
   183)       239.3  Rx         008F  8  98 F3 00 00 02 00 00 10
   193)       249.3  Rx         008F  8  16 F4 00 00 02 00 00 10
   197)       259.3  Rx         008F  8  4B F5 00 00 02 00 00 10
   216)       269.3  Rx         008F  8  AC F6 00 00 02 00 00 10
   221)       279.3  Rx         008F  8  F1 F7 00 00 02 00 00 10
   231)       289.3  Rx         008F  8  AD F8 00 00 02 00 00 10
   235)       299.3  Rx         008F  8  F0 F9 00 00 02 00 00 10
   246)       309.3  Rx         008F  8  17 FA 00 00 02 00 00 10
   250)       319.3  Rx         008F  8  4A FB 00 00 02 00 00 10
   259)       329.3  Rx         008F  8  C4 FC 00 00 02 00 00 10
   263)       339.3  Rx         008F  8  99 FD 00 00 02 00 00 10
   272)       349.3  Rx         008F  8  7E FE 00 00 02 00 00 10
   276)       359.3  Rx         008F  8  7F F0 00 00 02 00 00 10
   294)       369.3  Rx         008F  8  22 F1 00 00 02 00 00 10
   297)       379.3  Rx         008F  8  C5 F2 00 00 02 00 00 10
   306)       389.3  Rx         008F  8  98 F3 00 00 02 00 00 10
   310)       399.3  Rx         008F  8  16 F4 00 00 02 00 00 10
   319)       409.3  Rx         008F  8  4B F5 00 00 02 00 00 10
   323)       419.3  Rx         008F  8  AC F6 00 00 02 00 00 10
   333)       429.3  Rx         008F  8  F1 F7 00 00 02 00 00 10
   336)       439.3  Rx         008F  8  AD F8 00 00 02 00 00 10
   345)       449.3  Rx         008F  8  F0 F9 00 00 02 00 00 10
   350)       459.3  Rx         008F  8  17 FA 00 00 02 00 00 10
   369)       469.3  Rx         008F  8  4A FB 00 00 02 00 00 10
   372)       479.3  Rx         008F  8  C4 FC 00 00 02 00 00 10
   382)       489.3  Rx         008F  8  99 FD 00 00 02 00 00 10
   385)       499.3  Rx         008F  8  7E FE 00 00 02 00 00 10
   394)       509.3  Rx         008F  8  7F F0 00 00 02 00 00 10
   400)       519.3  Rx         008F  8  22 F1 00 00 02 00 00 10
   410)       529.3  Rx         008F  8  C5 F2 00 00 02 00 00 10
   414)       539.3  Rx         008F  8  98 F3 00 00 02 00 00 10
   424)       549.3  Rx         008F  8  16 F4 00 00 02 00 00 10
   428)       559.3  Rx         008F  8  4B F5 00 00 02 00 00 10
   445)       569.3  Rx         008F  8  AC F6 00 00 02 00 00 10
   449)       579.3  Rx         008F  8  F1 F7 00 00 02 00 00 10
   458)       589.3  Rx         008F  8  AD F8 00 00 02 00 00 10
   461)       599.3  Rx         008F  8  F0 F9 00 00 02 00 00 10
   471)       609.3  Rx         008F  8  17 FA 00 00 02 00 00 10
   475)       619.3  Rx         008F  8  4A FB 00 00 02 00 00 10
   484)       629.3  Rx         008F  8  C4 FC 00 00 02 00 00 10
   488)       639.3  Rx         008F  8  99 FD 00 00 02 00 00 10
   497)       649.3  Rx         008F  8  7E FE 00 00 02 00 00 10
   501)       659.3  Rx         008F  8  7F F0 00 00 02 00 00 10
   532)       669.3  Rx         008F  8  22 F1 00 00 02 00 00 10
   535)       679.3  Rx         008F  8  C5 F2 00 00 02 00 00 10
   544)       689.3  Rx         008F  8  98 F3 00 00 02 00 00 10
   548)       699.3  Rx         008F  8  16 F4 00 00 02 00 00 10
   558)       709.3  Rx         008F  8  4B F5 00 00 02 00 00 10
   562)       719.3  Rx         008F  8  AC F6 00 00 02 00 00 10
   572)       729.3  Rx         008F  8  F1 F7 00 00 02 00 00 10
   575)       739.3  Rx         008F  8  AD F8 00 00 02 00 00 10
   584)       749.3  Rx         008F  8  F0 F9 00 00 02 00 00 10
   591)       759.4  Rx         008F  8  17 FA 00 00 02 00 00 10
   610)       769.3  Rx         008F  8  4A FB 00 00 02 00 00 10
   614)       779.4  Rx         008F  8  C4 FC 00 00 02 00 00 10
   624)       789.3  Rx         008F  8  99 FD 00 00 02 00 00 10
   627)       799.3  Rx         008F  8  7E FE 00 00 02 00 00 10
   636)       809.4  Rx         008F  8  7F F0 00 00 02 00 00 10
   641)       819.3  Rx         008F  8  22 F1 00 00 02 00 00 10
   650)       829.3  Rx         008F  8  C5 F2 00 00 02 00 00 10
   653)       839.3  Rx         008F  8  98 F3 00 00 02 00 00 10
   663)       849.3  Rx         008F  8  16 F4 00 00 02 00 00 10
   667)       859.4  Rx         008F  8  4B F5 00 00 02 00 00 10
   686)       869.3  Rx         008F  8  AC F6 00 00 02 00 00 10
   690)       879.3  Rx         008F  8  F1 F7 00 00 02 00 00 10
   699)       889.3  Rx         008F  8  AD F8 00 00 02 00 00 10
   702)       899.3  Rx         008F  8  F0 F9 00 00 02 00 00 10
   712)       909.4  Rx         008F  8  17 FA 00 00 02 00 00 10
   716)       919.3  Rx         008F  8  4A FB 00 00 02 00 00 10
   725)       929.3  Rx         008F  8  C4 FC 00 00 02 00 00 10
   729)       939.3  Rx         008F  8  99 FD 00 00 02 00 00 10
   738)       949.3  Rx         008F  8  7E FE 00 00 02 00 00 10
   742)       959.4  Rx         008F  8  7F F0 00 00 02 00 00 10
   760)       969.3  Rx         008F  8  22 F1 00 00 02 00 00 10
   763)       979.3  Rx         008F  8  C5 F2 00 00 02 00 00 10
   772)       989.3  Rx         008F  8  98 F3 00 00 02 00 00 10
   777)       999.3  Rx         008F  8  16 F4 00 00 02 00 00 10
   787)      1009.4  Rx         008F  8  4B F5 00 00 02 00 00 10
   792)      1019.3  Rx         008F  8  AC F6 00 00 02 00 00 10
   802)      1029.3  Rx         008F  8  F1 F7 00 00 02 00 00 10
   805)      1039.3  Rx         008F  8  AD F8 00 00 02 00 00 10
   814)      1049.3  Rx         008F  8  F0 F9 00 00 02 00 00 10
   821)      1059.5  Rx         008F  8  17 FA 00 00 02 00 00 10
   840)      1069.3  Rx         008F  8  4A FB 00 00 02 00 00 10
   843)      1079.3  Rx         008F  8  C4 FC 00 00 02 00 00 10
   853)      1089.3  Rx         008F  8  99 FD 00 00 02 00 00 10
   861)      1099.3  Rx         008F  8  7E FE 00 00 02 00 00 10
   870)      1109.3  Rx         008F  8  7F F0 00 00 02 00 00 10
   875)      1119.3  Rx         008F  8  22 F1 00 00 02 00 00 10
   884)      1129.3  Rx         008F  8  C5 F2 00 00 02 00 00 10
   887)      1139.3  Rx         008F  8  98 F3 00 00 02 00 00 10
   897)      1149.3  Rx         008F  8  16 F4 00 00 02 00 00 10
   901)      1159.3  Rx         008F  8  4B F5 00 00 02 00 00 10
   921)      1169.3  Rx         008F  8  AC F6 00 00 02 00 00 10
   925)      1179.3  Rx         008F  8  F1 F7 00 00 02 00 00 10
   934)      1189.3  Rx         008F  8  AD F8 00 00 02 00 00 10
   937)      1199.3  Rx         008F  8  F0 F9 00 00 02 00 00 10
   947)      1209.3  Rx         008F  8  17 FA 00 00 02 00 00 10
   951)      1219.3  Rx         008F  8  4A FB 00 00 02 00 00 10
   960)      1229.3  Rx         008F  8  C4 FC 00 00 02 00 00 10
   965)      1239.3  Rx         008F  8  99 FD 00 00 02 00 00 10
   975)      1249.3  Rx         008F  8  7E FE 00 00 02 00 00 10
   980)      1259.4  Rx         008F  8  7F F0 00 00 02 00 00 10
  1000)      1269.3  Rx         008F  8  22 F1 00 00 02 00 00 10
  1003)      1279.3  Rx         008F  8  C5 F2 00 00 02 00 00 10
  1013)      1289.3  Rx         008F  8  98 F3 00 00 02 00 00 10
  1017)      1299.3  Rx         008F  8  16 F4 00 00 02 00 00 10
  1026)      1309.3  Rx         008F  8  4B F5 00 00 02 00 00 10
  1030)      1319.3  Rx         008F  8  AC F6 00 00 02 00 00 10
  1040)      1329.3  Rx         008F  8  F1 F7 00 00 02 00 00 10
  1043)      1339.3  Rx         008F  8  AD F8 00 00 02 00 00 10
  1052)      1349.3  Rx         008F  8  F0 F9 00 00 02 00 00 10
  1057)      1359.3  Rx         008F  8  17 FA 00 00 02 00 00 10
  1074)      1369.3  Rx         008F  8  4A FB 00 00 02 00 00 10
  1077)      1379.3  Rx         008F  8  C4 FC 00 00 02 00 00 10
  1087)      1389.3  Rx         008F  8  99 FD 00 00 02 00 00 10
  1091)      1399.3  Rx         008F  8  7E FE 00 00 02 00 00 10
  1100)      1409.3  Rx         008F  8  7F F0 00 00 02 00 00 10
  1106)      1419.3  Rx         008F  8  22 F1 00 00 02 00 00 10
  1115)      1429.3  Rx         008F  8  C5 F2 00 00 02 00 00 10
  1118)      1439.3  Rx         008F  8  98 F3 00 00 02 00 00 10
  1128)      1449.3  Rx         008F  8  16 F4 00 00 02 00 00 10
  1132)      1459.3  Rx         008F  8  4B F5 00 00 02 00 00 10
  1151)      1469.2  Rx         008F  8  AC F6 00 00 02 00 00 10
  1156)      1479.3  Rx         008F  8  F1 F7 00 00 02 00 00 10
  1166)      1489.3  Rx         008F  8  AD F8 00 00 02 00 00 10
  1170)      1499.3  Rx         008F  8  F0 F9 00 00 02 00 00 10
  1180)      1509.3  Rx         008F  8  17 FA 00 00 02 00 00 10
  1184)      1519.3  Rx         008F  8  4A FB 00 00 02 00 00 10
  1193)      1529.3  Rx         008F  8  C4 FC 00 00 02 00 00 10
  1197)      1539.3  Rx         008F  8  99 FD 00 00 02 00 00 10
  1206)      1549.2  Rx         008F  8  7E FE 00 00 02 00 00 10
  1210)      1559.3  Rx         008F  8  7F F0 00 00 02 00 00 10
  1228)      1569.2  Rx         008F  8  22 F1 00 00 02 00 00 10
  1231)      1579.3  Rx         008F  8  C5 F2 00 00 02 00 00 10
  1240)      1589.3  Rx         008F  8  98 F3 00 00 02 00 00 10
  1244)      1599.3  Rx         008F  8  16 F4 00 00 02 00 00 10
  1253)      1609.3  Rx         008F  8  4B F5 00 00 02 00 00 10
  1257)      1619.3  Rx         008F  8  AC F6 00 00 02 00 00 10
  1267)      1629.3  Rx         008F  8  F1 F7 00 00 02 00 00 10
  1270)      1639.3  Rx         008F  8  AD F8 00 00 02 00 00 10
  1279)      1649.3  Rx         008F  8  F0 F9 00 00 02 00 00 10
  1284)      1659.3  Rx         008F  8  17 FA 00 00 02 00 00 10
  1314)      1669.3  Rx         008F  8  4A FB 00 00 02 00 00 10
  1317)      1679.3  Rx         008F  8  C4 FC 00 00 02 00 00 10
  1327)      1689.3  Rx         008F  8  99 FD 00 00 02 00 00 10
  1330)      1699.3  Rx         008F  8  7E FE 00 00 02 00 00 10
  1339)      1709.3  Rx         008F  8  7F F0 00 00 02 00 00 10
  1345)      1719.3  Rx         008F  8  22 F1 00 00 02 00 00 10
  1355)      1729.3  Rx         008F  8  C5 F2 00 00 02 00 00 10
  1359)      1739.3  Rx         008F  8  98 F3 00 00 02 00 00 10
  1369)      1749.3  Rx         008F  8  16 F4 00 00 02 00 00 10
  1373)      1759.3  Rx         008F  8  4B F5 00 00 02 00 00 10
  1390)      1769.3  Rx         008F  8  AC F6 00 00 02 00 00 10
  1394)      1779.3  Rx         008F  8  F1 F7 00 00 02 00 00 10
  1403)      1789.3  Rx         008F  8  AD F8 00 00 02 00 00 10
  1406)      1799.3  Rx         008F  8  F0 F9 00 00 02 00 00 10
  1416)      1809.3  Rx         008F  8  17 FA 00 00 02 00 00 10
  1420)      1819.3  Rx         008F  8  4A FB 00 00 02 00 00 10
  1429)      1829.3  Rx         008F  8  C4 FC 00 00 02 00 00 10
  1433)      1839.3  Rx         008F  8  99 FD 00 00 02 00 00 10
  1442)      1849.3  Rx         008F  8  7E FE 00 00 02 00 00 10
  1446)      1859.3  Rx         008F  8  7F F0 00 00 02 00 00 10
  1466)      1869.3  Rx         008F  8  22 F1 00 00 02 00 00 10
  1469)      1879.3  Rx         008F  8  C5 F2 00 00 02 00 00 10
  1478)      1889.3  Rx         008F  8  98 F3 00 00 02 00 00 10
  1482)      1899.3  Rx         008F  8  16 F4 00 00 02 00 00 10
  1491)      1909.3  Rx         008F  8  4B F5 00 00 02 00 00 10
  1495)      1919.3  Rx         008F  8  AC F6 00 00 02 00 00 10
  1505)      1929.3  Rx         008F  8  F1 F7 00 00 02 00 00 10
  1508)      1939.3  Rx         008F  8  AD F8 00 00 02 00 00 10
  1517)      1949.3  Rx         008F  8  F0 F9 00 00 02 00 00 10
  1523)      1959.4  Rx         008F  8  17 FA 00 00 02 00 00 10
  1541)      1969.3  Rx         008F  8  4A FB 00 00 02 00 00 10
  1545)      1979.3  Rx         008F  8  C4 FC 00 00 02 00 00 10
  1555)      1989.3  Rx         008F  8  99 FD 00 00 02 00 00 10
  1558)      1999.3  Rx         008F  8  7E FE 00 00 02 00 00 10
  1567)      2009.4  Rx         008F  8  7F F0 00 00 02 00 00 10
  1572)      2019.3  Rx         008F  8  22 F1 00 00 02 00 00 10
  1581)      2029.3  Rx         008F  8  C5 F2 00 00 02 00 00 10
  1585)      2039.3  Rx         008F  8  98 F3 00 00 02 00 00 10
  1595)      2049.3  Rx         008F  8  16 F4 00 00 02 00 00 10
  1601)      2059.6  Rx         008F  8  4B F5 00 00 02 00 00 10
  1621)      2069.3  Rx         008F  8  AC F6 00 00 02 00 00 10
  1625)      2079.3  Rx         008F  8  F1 F7 00 00 02 00 00 10
  1634)      2089.3  Rx         008F  8  AD F8 00 00 02 00 00 10
  1637)      2099.3  Rx         008F  8  F0 F9 00 00 02 00 00 10
  1647)      2109.4  Rx         008F  8  17 FA 00 00 02 00 00 10
  1651)      2119.4  Rx         008F  8  4A FB 00 00 02 00 00 10
  1660)      2129.4  Rx         008F  8  C4 FC 00 00 02 00 00 10
  1664)      2139.4  Rx         008F  8  99 FD 00 00 02 00 00 10
  1673)      2149.4  Rx         008F  8  7E FE 00 00 02 00 00 10
  1677)      2159.4  Rx         008F  8  7F F0 00 00 02 00 00 10
  1698)      2169.3  Rx         008F  8  22 F1 00 00 02 00 00 10
  1701)      2179.3  Rx         008F  8  C5 F2 00 00 02 00 00 10
  1710)      2189.3  Rx         008F  8  98 F3 00 00 02 00 00 10
  1715)      2199.4  Rx         008F  8  16 F4 00 00 02 00 00 10
  1725)      2209.4  Rx         008F  8  4B F5 00 00 02 00 00 10
  1730)      2219.4  Rx         008F  8  AC F6 00 00 02 00 00 10
  1740)      2229.4  Rx         008F  8  F1 F7 00 00 02 00 00 10
  1743)      2239.3  Rx         008F  8  AD F8 00 00 02 00 00 10
  1752)      2249.3  Rx         008F  8  F0 F9 00 00 02 00 00 10
  1757)      2259.4  Rx         008F  8  17 FA 00 00 02 00 00 10
  1776)      2269.3  Rx         008F  8  4A FB 00 00 02 00 00 10
  1779)      2279.4  Rx         008F  8  C4 FC 00 00 02 00 00 10
  1790)      2289.4  Rx         008F  8  99 FD 00 00 02 00 00 10
  1793)      2299.4  Rx         008F  8  7E FE 00 00 02 00 00 10
  1802)      2309.4  Rx         008F  8  7F F0 00 00 02 00 00 10
  1807)      2319.3  Rx         008F  8  22 F1 00 00 02 00 00 10
  1816)      2329.3  Rx         008F  8  C5 F2 00 00 02 00 00 10
  1819)      2339.3  Rx         008F  8  98 F3 00 00 02 00 00 10
  1829)      2349.3  Rx         008F  8  16 F4 00 00 02 00 00 10
  1833)      2359.4  Rx         008F  8  4B F5 00 00 02 00 00 10
  1850)      2369.4  Rx         008F  8  AC F6 00 00 02 00 00 10
  1854)      2379.4  Rx         008F  8  F1 F7 00 00 02 00 00 10
  1863)      2389.4  Rx         008F  8  AD F8 00 00 02 00 00 10
  1866)      2399.3  Rx         008F  8  F0 F9 00 00 02 00 00 10
  1876)      2409.4  Rx         008F  8  17 FA 00 00 02 00 00 10
  1880)      2419.3  Rx         008F  8  4A FB 00 00 02 00 00 10
  1889)      2429.4  Rx         008F  8  C4 FC 00 00 02 00 00 10
  1894)      2439.4  Rx         008F  8  99 FD 00 00 02 00 00 10
  1904)      2449.4  Rx         008F  8  7E FE 00 00 02 00 00 10
  1909)      2459.5  Rx         008F  8  7F F0 00 00 02 00 00 10
  1929)      2469.4  Rx         008F  8  22 F1 00 00 02 00 00 10
  1932)      2479.3  Rx         008F  8  C5 F2 00 00 02 00 00 10
  1941)      2489.3  Rx         008F  8  98 F3 00 00 02 00 00 10
  1945)      2499.4  Rx         008F  8  16 F4 00 00 02 00 00 10
  1954)      2509.4  Rx         008F  8  4B F5 00 00 02 00 00 10
  1958)      2519.4  Rx         008F  8  AC F6 00 00 02 00 00 10
  1968)      2529.4  Rx         008F  8  F1 F7 00 00 02 00 00 10
  1971)      2539.4  Rx         008F  8  AD F8 00 00 02 00 00 10
  1980)      2549.4  Rx         008F  8  F0 F9 00 00 02 00 00 10
  1985)      2559.4  Rx         008F  8  17 FA 00 00 02 00 00 10
  2002)      2569.3  Rx         008F  8  4A FB 00 00 02 00 00 10
  2005)      2579.4  Rx         008F  8  C4 FC 00 00 02 00 00 10
  2015)      2589.4  Rx         008F  8  99 FD 00 00 02 00 00 10
  2018)      2599.4  Rx         008F  8  7E FE 00 00 02 00 00 10
  2027)      2609.4  Rx         008F  8  7F F0 00 00 02 00 00 10
  2032)      2619.4  Rx         008F  8  22 F1 00 00 02 00 00 10
  2041)      2629.4  Rx         008F  8  C5 F2 00 00 02 00 00 10
  2044)      2639.4  Rx         008F  8  98 F3 00 00 02 00 00 10
  2054)      2649.4  Rx         008F  8  16 F4 00 00 02 00 00 10
  2058)      2659.4  Rx         008F  8  4B F5 00 00 02 00 00 10
  2088)      2669.4  Rx         008F  8  AC F6 00 00 02 00 00 10
  2094)      2679.4  Rx         008F  8  F1 F7 00 00 02 00 00 10
  2104)      2689.4  Rx         008F  8  AD F8 00 00 02 00 00 10
  2108)      2699.4  Rx         008F  8  F0 F9 00 00 02 00 00 10
  2118)      2709.4  Rx         008F  8  17 FA 00 00 02 00 00 10
  2123)      2719.4  Rx         008F  8  4A FB 00 00 02 00 00 10
  2132)      2729.3  Rx         008F  8  C4 FC 00 00 02 00 00 10
  2136)      2739.3  Rx         008F  8  99 FD 00 00 02 00 00 10
  2145)      2749.3  Rx         008F  8  7E FE 00 00 02 00 00 10
  2149)      2759.3  Rx         008F  8  7F F0 00 00 02 00 00 10
  2167)      2769.3  Rx         008F  8  22 F1 00 00 02 00 00 10
  2170)      2779.3  Rx         008F  8  C5 F2 00 00 02 00 00 10
  2179)      2789.3  Rx         008F  8  98 F3 00 00 02 00 00 10
  2183)      2799.3  Rx         008F  8  16 F4 00 00 02 00 00 10
  2192)      2809.3  Rx         008F  8  4B F5 00 00 02 00 00 10
  2196)      2819.2  Rx         008F  8  AC F6 00 00 02 00 00 10
  2206)      2829.2  Rx         008F  8  F1 F7 00 00 02 00 00 10
  2209)      2839.3  Rx         008F  8  AD F8 00 00 02 00 00 10
  2218)      2849.3  Rx         008F  8  F0 F9 00 00 02 00 00 10
  2223)      2859.3  Rx         008F  8  17 FA 00 00 02 00 00 10
  2242)      2869.3  Rx         008F  8  4A FB 00 00 02 00 00 10
  2245)      2879.3  Rx         008F  8  C4 FC 00 00 02 00 00 10
  2255)      2889.2  Rx         008F  8  99 FD 00 00 02 00 00 10
  2258)      2899.2  Rx         008F  8  7E FE 00 00 02 00 00 10
  2267)      2909.3  Rx         008F  8  7F F0 00 00 02 00 00 10
  2273)      2919.2  Rx         008F  8  22 F1 00 00 02 00 00 10
  2283)      2929.2  Rx         008F  8  C5 F2 00 00 02 00 00 10
  2287)      2939.3  Rx         008F  8  98 F3 00 00 02 00 00 10
  2297)      2949.3  Rx         008F  8  16 F4 00 00 02 00 00 10
  2301)      2959.3  Rx         008F  8  4B F5 00 00 02 00 00 10
  2318)      2969.3  Rx         008F  8  AC F6 00 00 02 00 00 10
  2322)      2979.2  Rx         008F  8  F1 F7 00 00 02 00 00 10
  2331)      2989.2  Rx         008F  8  AD F8 00 00 02 00 00 10
  2334)      2999.2  Rx         008F  8  F0 F9 00 00 02 00 00 10
  2344)      3009.3  Rx         008F  8  17 FA 00 00 02 00 00 10
  2348)      3019.3  Rx         008F  8  4A FB 00 00 02 00 00 10
  2357)      3029.2  Rx         008F  8  C4 FC 00 00 02 00 00 10
  2361)      3039.3  Rx         008F  8  99 FD 00 00 02 00 00 10
  2370)      3049.3  Rx         008F  8  7E FE 00 00 02 00 00 10
  2375)      3059.3  Rx         008F  8  7F F0 00 00 02 00 00 10
  2396)      3069.2  Rx         008F  8  22 F1 00 00 02 00 00 10
  2399)      3079.2  Rx         008F  8  C5 F2 00 00 02 00 00 10
  2408)      3089.2  Rx         008F  8  98 F3 00 00 02 00 00 10
  2412)      3099.2  Rx         008F  8  16 F4 00 00 02 00 00 10
  2421)      3109.3  Rx         008F  8  4B F5 00 00 02 00 00 10
  2425)      3119.2  Rx         008F  8  AC F6 00 00 02 00 00 10
  2435)      3129.2  Rx         008F  8  F1 F7 00 00 02 00 00 10
  2438)      3139.2  Rx         008F  8  AD F8 00 00 02 00 00 10
  2447)      3149.2  Rx         008F  8  F0 F9 00 00 02 00 00 10
  2453)      3159.4  Rx         008F  8  17 FA 00 00 02 00 00 10
  2474)      3169.2  Rx         008F  8  4A FB 00 00 02 00 00 10
  2478)      3179.2  Rx         008F  8  C4 FC 00 00 02 00 00 10
  2488)      3189.2  Rx         008F  8  99 FD 00 00 02 00 00 10
  2491)      3199.2  Rx         008F  8  7E FE 00 00 02 00 00 10
  2500)      3209.3  Rx         008F  8  7F F0 00 00 02 00 00 10
  2505)      3219.2  Rx         008F  8  22 F1 00 00 02 00 00 10
  2514)      3229.2  Rx         008F  8  C5 F2 00 00 02 00 00 10
  2517)      3239.2  Rx         008F  8  98 F3 00 00 02 00 00 10
  2527)      3249.2  Rx         008F  8  16 F4 00 00 02 00 00 10
  2531)      3259.2  Rx         008F  8  4B F5 00 00 02 00 00 10
  2550)      3269.2  Rx         008F  8  AC F6 00 00 02 00 00 10
  2554)      3279.2  Rx         008F  8  F1 F7 00 00 02 00 00 10
  2564)      3289.2  Rx         008F  8  AD F8 00 00 02 00 00 10
  2567)      3299.2  Rx         008F  8  F0 F9 00 00 02 00 00 10
  2577)      3309.2  Rx         008F  8  17 FA 00 00 02 00 00 10
  2582)      3319.2  Rx         008F  8  4A FB 00 00 02 00 00 10
  2591)      3329.2  Rx         008F  8  C4 FC 00 00 02 00 00 10
  2595)      3339.2  Rx         008F  8  99 FD 00 00 02 00 00 10
  2604)      3349.2  Rx         008F  8  7E FE 00 00 02 00 00 10
  2608)      3359.2  Rx         008F  8  7F F0 00 00 02 00 00 10
  2627)      3369.2  Rx         008F  8  22 F1 00 00 02 00 00 10
  2630)      3379.2  Rx         008F  8  C5 F2 00 00 02 00 00 10
  2639)      3389.2  Rx         008F  8  98 F3 00 00 02 00 00 10
  2644)      3399.2  Rx         008F  8  16 F4 00 00 02 00 00 10
  2654)      3409.2  Rx         008F  8  4B F5 00 00 02 00 00 10
  2659)      3419.2  Rx         008F  8  AC F6 00 00 02 00 00 10
  2669)      3429.2  Rx         008F  8  F1 F7 00 00 02 00 00 10
  2672)      3439.2  Rx         008F  8  AD F8 00 00 02 00 00 10
  2681)      3449.2  Rx         008F  8  F0 F9 00 00 02 00 00 10
  2686)      3459.2  Rx         008F  8  17 FA 00 00 02 00 00 10
  2705)      3469.2  Rx         008F  8  4A FB 00 00 02 00 00 10
  2708)      3479.2  Rx         008F  8  C4 FC 00 00 02 00 00 10
  2718)      3489.2  Rx         008F  8  99 FD 00 00 02 00 00 10
  2721)      3499.2  Rx         008F  8  7E FE 00 00 02 00 00 10
  2730)      3509.2  Rx         008F  8  7F F0 00 00 02 00 00 10
  2735)      3519.2  Rx         008F  8  22 F1 00 00 02 00 00 10
  2744)      3529.2  Rx         008F  8  C5 F2 00 00 02 00 00 10
  2747)      3539.2  Rx         008F  8  98 F3 00 00 02 00 00 10
  2757)      3549.2  Rx         008F  8  16 F4 00 00 02 00 00 10
  2761)      3559.2  Rx         008F  8  4B F5 00 00 02 00 00 10
  2778)      3569.2  Rx         008F  8  AC F6 00 00 02 00 00 10
  2782)      3579.2  Rx         008F  8  F1 F7 00 00 02 00 00 10
  2791)      3589.2  Rx         008F  8  AD F8 00 00 02 00 00 10
  2794)      3599.2  Rx         008F  8  F0 F9 00 00 02 00 00 10
  2804)      3609.2  Rx         008F  8  17 FA 00 00 02 00 00 10
  2808)      3619.2  Rx         008F  8  4A FB 00 00 02 00 00 10
  2817)      3629.2  Rx         008F  8  C4 FC 00 00 02 00 00 10
  2822)      3639.2  Rx         008F  8  99 FD 00 00 02 00 00 10
  2832)      3649.2  Rx         008F  8  7E FE 00 00 02 00 00 10
  2837)      3659.4  Rx         008F  8  7F F0 00 00 02 00 00 10
  2868)      3669.2  Rx         008F  8  22 F1 00 00 02 00 00 10
  2871)      3679.2  Rx         008F  8  C5 F2 00 00 02 00 00 10
  2880)      3689.2  Rx         008F  8  98 F3 00 00 02 00 00 10
  2884)      3699.2  Rx         008F  8  16 F4 00 00 02 00 00 10
  2893)      3709.2  Rx         008F  8  4B F5 00 00 02 00 00 10
  2897)      3719.2  Rx         008F  8  AC F6 00 00 02 00 00 10
  2907)      3729.1  Rx         008F  8  F1 F7 00 00 02 00 00 10
  2910)      3739.2  Rx         008F  8  AD F8 00 00 02 00 00 10
  2919)      3749.1  Rx         008F  8  F0 F9 00 00 02 00 00 10
  2924)      3759.2  Rx         008F  8  17 FA 00 00 02 00 00 10
