;$FILEVERSION=1.1
;$STARTTIME=45635.6441750231
;
;   Start time: 12/9/2024 15:27:36.722.0
;   Generated by PCAN-View v4.3.4.615
;
;   Message Number
;   |         Time Offset (ms)
;   |         |        Type
;   |         |        |        ID (hex)
;   |         |        |        |     Data Length
;   |         |        |        |     |   Data Bytes (hex) ...
;   |         |        |        |     |   |
;---+--   ----+----  --+--  ----+---  +  -+ -- -- -- -- -- -- --
    29)     38295.1  Rx         00C9  8  80 2D 38 00 1C 00 10 07
    58)     38308.1  Rx         00C9  8  80 2D 2D 07 1C 00 10 07
    96)     38321.2  Rx         00C9  8  80 2D 3E 0A 1C 00 10 07
   130)     38333.5  Rx         00C9  8  80 2D 32 0D 1C 00 10 07
   170)     38345.2  Rx         00C9  8  80 2D 31 00 1C 00 10 07
   195)     38357.7  Rx         00C9  8  80 2D 30 07 1C 00 10 07
   235)     38371.0  Rx         00C9  8  80 2D 25 0A 1C 00 10 07
   266)     38383.2  Rx         00C9  8  80 2D 32 0D 1C 00 10 07
   303)     38395.6  Rx         00C9  8  80 2D 1F 00 1C 00 10 07
   335)     38407.9  Rx         00C9  8  80 2D 29 07 1C 00 10 07
   376)     38420.4  Rx         00C9  8  80 2D 27 0A 1C 00 10 07
   413)     38433.5  Rx         00C9  8  80 2D 18 0D 1C 00 10 07
   465)     38445.8  Rx         00C9  8  80 2D 2F 00 1C 00 10 07
   494)     38458.2  Rx         00C9  8  80 2D 2D 07 1C 00 10 07
   536)     38471.1  Rx         00C9  8  80 2D 2B 0A 1C 00 10 07
   568)     38482.7  Rx         00C9  8  80 2D 2D 0D 1C 00 10 07
   610)     38495.7  Rx         00C9  8  80 2D 23 00 1C 00 10 07
   638)     38508.2  Rx         00C9  8  80 2D 34 07 1C 00 10 07
   673)     38520.5  Rx         00C9  8  80 2D 38 0A 1C 00 10 07
   711)     38533.7  Rx         00C9  8  80 2D 37 0D 1C 00 10 07
   749)     38545.1  Rx         00C9  8  80 2D 3E 00 1C 00 10 07
   776)     38558.2  Rx         00C9  8  80 2D 2C 07 1C 00 10 07
   812)     38570.4  Rx         00C9  8  80 2D 44 0A 1C 00 10 07
   845)     38583.0  Rx         00C9  8  80 2D 4F 0D 1C 00 10 07
   883)     38595.8  Rx         00C9  8  80 2D 42 00 1C 00 10 07
   910)     38608.1  Rx         00C9  8  80 2D 4D 07 1C 00 10 07
   946)     38620.5  Rx         00C9  8  80 2D 41 0A 1C 00 10 07
   984)     38633.2  Rx         00C9  8  80 2D 51 0D 1C 00 10 07
  1024)     38645.2  Rx         00C9  8  80 2D 62 00 1C 00 10 07
  1053)     38658.4  Rx         00C9  8  80 2D 4D 07 1C 00 10 07
  1093)     38670.4  Rx         00C9  8  80 2D 5C 0A 1C 00 10 07
  1126)     38683.4  Rx         00C9  8  80 2D 49 0D 1C 00 10 07
  1164)     38695.8  Rx         00C9  8  80 2D 5A 00 1C 00 10 07
  1192)     38708.1  Rx         00C9  8  80 2D 44 07 1C 00 10 07
  1227)     38720.4  Rx         00C9  8  80 2D 3E 0A 1C 00 10 07
  1264)     38733.6  Rx         00C9  8  80 2D 52 0D 1C 00 10 07
  1306)     38746.0  Rx         00C9  8  80 2D 47 00 1C 00 10 07
  1331)     38758.3  Rx         00C9  8  80 2D 52 07 1C 00 10 07
  1368)     38770.4  Rx         00C9  8  80 2D 48 0A 1C 00 10 07
  1400)     38783.0  Rx         00C9  8  80 2D 49 0D 1C 00 10 07
  1438)     38795.8  Rx         00C9  8  80 2D 54 00 1C 00 10 07
  1465)     38808.2  Rx         00C9  8  80 2D 45 07 1C 00 10 07
  1505)     38821.1  Rx         00C9  8  80 2D 4E 0A 1C 00 10 07
  1540)     38834.0  Rx         00C9  8  80 2D 58 0D 1C 00 10 07
  1579)     38845.2  Rx         00C9  8  80 2D 55 00 1B 00 10 07
  1605)     38858.3  Rx         00C9  8  80 2D 68 07 1B 00 10 07
  1642)     38870.4  Rx         00C9  8  80 2D 57 0A 1B 00 10 07
  1675)     38883.2  Rx         00C9  8  80 2D 54 0D 1A 00 10 07
  1713)     38895.9  Rx         00C9  8  80 2D 67 00 1A 00 10 07
  1743)     38908.1  Rx         00C9  8  80 2D 64 07 1A 00 10 07
  1786)     38921.3  Rx         00C9  8  80 2D 70 0A 19 00 10 07
  1820)     38933.6  Rx         00C9  8  80 2D 61 0D 19 00 10 07
  1866)     38945.3  Rx         00C9  8  80 2D 4F 00 19 00 10 07
  1892)     38958.2  Rx         00C9  8  80 2D 6E 07 18 00 10 07
  1929)     38970.5  Rx         00C9  8  80 2D 64 0A 18 00 10 07
  1962)     38983.6  Rx         00C9  8  80 2D 70 0D 17 00 10 07
  2000)     38995.8  Rx         00C9  8  80 2D 58 00 17 00 10 07
  2028)     39008.2  Rx         00C9  8  80 2D 5A 07 16 00 10 07
  2063)     39020.5  Rx         00C9  8  80 2D 5C 0A 16 00 10 07
  2100)     39033.7  Rx         00C9  8  80 2D 50 0D 15 00 10 07
  2141)     39045.9  Rx         00C9  8  80 2D 55 00 15 00 10 07
  2166)     39058.4  Rx         00C9  8  80 2D 44 07 15 00 10 07
  2203)     39070.5  Rx         00C9  8  80 2D 33 0A 15 00 10 07
  2235)     39083.1  Rx         00C9  8  80 2D 2E 0D 15 00 10 07
  2273)     39095.9  Rx         00C9  8  80 2D 20 00 15 00 10 07
  2300)     39108.3  Rx         00C9  8  80 2D 2C 07 14 00 10 07
  2334)     39120.6  Rx         00C9  8  80 2D 1F 0A 14 00 10 07
  2372)     39134.0  Rx         00C9  8  80 2D 0B 0D 14 00 10 07
  2411)     39145.3  Rx         00C9  8  80 2D 08 00 14 00 10 06
  2439)     39158.4  Rx         00C9  8  80 2C F6 07 14 00 10 06
  2482)     39171.2  Rx         00C9  8  80 2C FB 0A 13 00 10 06
  2513)     39183.3  Rx         00C9  8  80 2C FE 0D 13 00 10 06
  2551)     39195.4  Rx         00C9  8  80 2C FC 00 13 00 10 06
  2579)     39208.2  Rx         00C9  8  80 2C F9 07 13 00 10 06
  2617)     39221.4  Rx         00C9  8  80 2C E3 0A 13 00 10 06
  2651)     39233.7  Rx         00C9  8  80 2C F7 0D 13 00 10 06
  2692)     39245.5  Rx         00C9  8  80 2C F4 00 12 00 10 06
  2718)     39258.2  Rx         00C9  8  80 2C F8 07 12 00 10 06
  2755)     39270.5  Rx         00C9  8  80 2D 00 0A 12 00 10 06
  2788)     39283.4  Rx         00C9  8  80 2C F2 0D 12 00 10 06
  2825)     39295.9  Rx         00C9  8  80 2D 08 00 11 00 10 06
  2853)     39308.4  Rx         00C9  8  80 2D 06 07 11 00 10 06
  2889)     39320.6  Rx         00C9  8  80 2D 09 0A 11 00 10 06
  2926)     39333.4  Rx         00C9  8  80 2D 15 0D 10 00 10 06
  2967)     39345.9  Rx         00C9  8  80 2D 02 00 10 00 10 06
  2992)     39358.4  Rx         00C9  8  80 2D 18 07 10 00 10 06
  3031)     39371.1  Rx         00C9  8  80 2D 11 0A 0F 00 10 06
  3061)     39383.6  Rx         00C9  8  80 2D 0D 0D 0F 00 10 06
  3098)     39395.3  Rx         00C9  8  80 2D 17 00 0F 00 10 06
  3130)     39408.4  Rx         00C9  8  80 2D 0F 07 0F 00 10 06
  3173)     39421.3  Rx         00C9  8  80 2D 25 0A 0F 00 10 06
  3209)     39433.4  Rx         00C9  8  80 2D 2E 0D 0F 00 10 06
  3262)     39446.0  Rx         00C9  8  80 2D 1D 00 0F 00 10 06
  3289)     39457.9  Rx         00C9  8  80 2D 20 07 0E 00 10 06
  3333)     39471.3  Rx         00C9  8  80 2D 13 0A 0E 00 10 06
  3365)     39483.2  Rx         00C9  8  80 2D 2B 0D 0E 00 10 06
  3403)     39495.4  Rx         00C9  8  80 2D 23 00 0E 00 10 06
  3431)     39508.7  Rx         00C9  8  80 2D 15 07 0E 00 10 06
  3467)     39520.6  Rx         00C9  8  80 2D 17 0A 0E 00 10 06
  3503)     39533.6  Rx         00C9  8  80 2D 00 0D 0E 00 10 06
  3543)     39545.5  Rx         00C9  8  80 2D 13 00 0E 00 10 06
  3568)     39558.0  Rx         00C9  8  80 2D 19 07 0E 00 10 06
  3609)     39571.5  Rx         00C9  8  80 2D 02 0A 0E 00 10 06
  3638)     39583.0  Rx         00C9  8  80 2C FE 0D 0E 00 10 06
  3675)     39595.5  Rx         00C9  8  80 2C E8 00 0D 00 10 06
  3704)     39608.3  Rx         00C9  8  80 2C FC 07 0D 00 10 06
  3739)     39620.6  Rx         00C9  8  80 2C F2 0A 0D 00 10 06
  3778)     39633.9  Rx         00C9  8  80 2C EA 0D 0D 00 10 06
  3818)     39645.4  Rx         00C9  8  80 2C EE 00 0D 00 10 06
  3846)     39658.4  Rx         00C9  8  80 2C D4 07 0D 00 10 06
  3887)     39670.6  Rx         00C9  8  80 2C E3 0A 0D 00 10 06
  3919)     39683.3  Rx         00C9  8  80 2C E1 0D 0D 00 10 06
  3958)     39696.1  Rx         00C9  8  80 2C DE 00 0D 00 10 06
  3985)     39708.1  Rx         00C9  8  80 2C E1 07 0C 00 10 06
  4024)     39721.7  Rx         00C9  8  80 2C CD 0A 0C 00 10 06
  4058)     39733.8  Rx         00C9  8  80 2C E2 0D 0C 00 10 06
  4099)     39745.8  Rx         00C9  8  80 2C D1 00 0B 00 10 06
  4125)     39758.2  Rx         00C9  8  80 2C DE 07 0B 00 10 06
  4161)     39770.6  Rx         00C9  8  80 2C E4 0A 0A 00 10 06
  4194)     39783.8  Rx         00C9  8  80 2C D6 0D 0A 00 10 06
  4232)     39796.0  Rx         00C9  8  80 2C E6 00 09 00 10 06
  4259)     39808.4  Rx         00C9  8  80 2C DE 07 09 00 10 06
  4297)     39820.7  Rx         00C9  8  80 2C DB 0A 09 00 10 06
  4333)     39833.6  Rx         00C9  8  80 2C DA 0D 08 00 10 06
  4374)     39846.1  Rx         00C9  8  80 2C CE 00 08 00 10 06
  4399)     39858.7  Rx         00C9  8  80 2C DC 07 08 00 10 06
  4438)     39871.3  Rx         00C9  8  80 2C C0 0A 08 00 10 06
  4469)     39883.4  Rx         00C9  8  80 2C C0 0D 08 00 10 06
  4505)     39895.4  Rx         00C9  8  80 2C BA 00 08 00 10 06
  4536)     39908.7  Rx         00C9  8  80 2C A8 07 08 00 10 06
  4580)     39921.7  Rx         00C9  8  80 2C B1 0A 07 00 10 06
  4614)     39933.9  Rx         00C9  8  80 2C 96 0D 07 00 10 06
  4660)     39945.6  Rx         00C9  8  80 2C 75 00 07 00 10 06
  4686)     39958.6  Rx         00C9  8  80 2C 7F 07 07 00 10 06
  4723)     39970.7  Rx         00C9  8  80 2C 67 0A 06 00 10 06
  4755)     39983.4  Rx         00C9  8  80 2C 6E 0D 06 00 10 06
  4793)     39995.5  Rx         00C9  8  80 2C 53 00 06 00 10 06
  4821)     40008.4  Rx         00C9  8  80 2C 32 07 06 00 10 06
  4859)     40021.5  Rx         00C9  8  80 2C 20 0A 06 00 10 06
  4894)     40033.5  Rx         00C9  8  80 2C 06 0D 06 00 10 06
  4934)     40046.2  Rx         00C9  8  80 2B F3 00 05 00 10 05
  4959)     40058.7  Rx         00C9  8  80 2B DD 07 05 00 10 05
  4998)     40071.2  Rx         00C9  8  80 2B E5 0A 05 00 10 05
  5028)     40083.1  Rx         00C9  8  80 2B E4 0D 05 00 10 05
  5067)     40096.2  Rx         00C9  8  80 2B BD 00 05 00 10 05
  5092)     40108.1  Rx         00C9  8  80 2B B0 07 05 00 10 05
  5132)     40121.5  Rx         00C9  8  80 2B 9B 0A 05 00 10 05
  5166)     40134.1  Rx         00C9  8  80 2B 9D 0D 04 00 10 05
  5206)     40145.6  Rx         00C9  8  80 2B 89 00 04 00 10 05
  5233)     40158.1  Rx         00C9  8  80 2B 8A 07 04 00 10 05
  5277)     40171.2  Rx         00C9  8  80 2B 7C 0A 04 00 10 05
  5308)     40183.5  Rx         00C9  8  80 2B 5F 0D 04 00 10 05
  5345)     40195.5  Rx         00C9  8  80 2B 52 00 04 00 10 05
  5373)     40208.3  Rx         00C9  8  80 2B 3E 07 04 00 10 05
  5409)     40220.8  Rx         00C9  8  80 2B 3F 0A 03 00 10 05
  5446)     40233.9  Rx         00C9  8  80 2B 29 0D 03 00 10 05
  5486)     40245.6  Rx         00C9  8  80 2B 24 00 03 00 10 05
  5512)     40258.9  Rx         00C9  8  80 2B 1E 07 03 00 10 05
  5550)     40270.7  Rx         00C9  8  80 2B 18 0A 03 00 10 05
  5582)     40283.6  Rx         00C9  8  80 2B 2B 0D 03 00 10 05
  5620)     40296.3  Rx         00C9  8  80 2B 29 00 03 00 10 05
  5647)     40308.3  Rx         00C9  8  80 2B 4B 07 03 00 10 05
  5684)     40320.8  Rx         00C9  8  80 2B 5B 0A 03 00 10 05
  5715)     40334.2  Rx         00C9  8  80 2B 79 0D 03 00 10 05
  5755)     40345.6  Rx         00C9  8  80 2B 8E 00 03 00 10 05
  5780)     40358.2  Rx         00C9  8  80 2B A4 07 03 00 10 05
  5820)     40371.2  Rx         00C9  8  80 2B D8 0A 03 00 10 05
  5851)     40383.5  Rx         00C9  8  80 2B D8 0D 03 00 10 05
  5889)     40395.6  Rx         00C9  8  80 2B F4 00 03 00 10 05
  5921)     40408.4  Rx         00C9  8  80 2C 0C 07 03 00 10 05
  5965)     40421.4  Rx         00C9  8  80 2C 14 0A 03 00 10 05
  6000)     40434.0  Rx         00C9  8  80 2C 21 0D 03 00 10 05
  6053)     40446.5  Rx         00C9  8  80 2C 15 00 03 00 10 05
  6081)     40458.6  Rx         00C9  8  80 2C 26 07 03 00 10 05
  6123)     40471.5  Rx         00C9  8  80 2C 37 0A 03 00 10 05
  6156)     40484.0  Rx         00C9  8  80 2C 10 0D 03 00 10 05
  6195)     40495.6  Rx         00C9  8  80 2C 0C 00 03 00 10 05
  6223)     40508.9  Rx         00C9  8  80 2B F5 07 03 00 10 05
  6262)     40521.9  Rx         00C9  8  80 2C 04 0A 03 00 10 05
  6296)     40534.0  Rx         00C9  8  80 2B EF 0D 03 00 10 05
  6336)     40545.7  Rx         00C9  8  80 2B E1 00 03 00 10 05
  6362)     40558.9  Rx         00C9  8  80 2B CA 07 03 00 10 05
  6401)     40571.3  Rx         00C9  8  80 2B B2 0A 02 00 10 05
  6431)     40583.6  Rx         00C9  8  80 2B B9 0D 02 00 10 05
  6469)     40596.3  Rx         00C9  8  80 2B A4 00 02 00 10 05
  6496)     40608.6  Rx         00C9  8  80 2B 99 07 02 00 10 05
  6532)     40620.9  Rx         00C9  8  80 2B A5 0A 02 00 10 05
  6571)     40634.1  Rx         00C9  8  80 2B 76 0D 02 00 10 05
  6610)     40645.7  Rx         00C9  8  80 2B 75 00 02 00 10 05
  6638)     40658.8  Rx         00C9  8  80 2B 62 07 02 00 10 05
  6683)     40672.0  Rx         00C9  8  80 2B 72 0A 02 00 10 05
  6712)     40683.6  Rx         00C9  8  80 2B 61 0D 02 00 10 05
  6750)     40695.7  Rx         00C9  8  80 2B 53 00 02 00 10 05
  6778)     40708.8  Rx         00C9  8  80 2B 59 07 02 00 10 05
  6814)     40720.9  Rx         00C9  8  80 2B 54 0A 02 00 10 05
  6850)     40734.1  Rx         00C9  8  80 2B 6A 0D 03 00 10 05
  6891)     40745.7  Rx         00C9  8  80 2B 59 00 04 00 10 05
  6917)     40758.4  Rx         00C9  8  80 2B 77 07 06 00 10 05
  6956)     40771.5  Rx         00C9  8  80 2B 7C 0A 07 00 10 05
  6987)     40783.6  Rx         00C9  8  80 2B 8A 0D 08 00 10 05
  7023)     40795.7  Rx         00C9  8  80 2B 98 00 08 00 10 05
  7052)     40808.6  Rx         00C9  8  80 2B A5 07 09 00 10 05
  7091)     40821.5  Rx         00C9  8  80 2B C8 0A 0A 00 10 05
  7126)     40833.7  Rx         00C9  8  80 2B BE 0D 0A 00 10 05
  7167)     40846.2  Rx         00C9  8  80 2B D6 00 0A 00 10 04
  7192)     40858.6  Rx         00C9  8  80 2B CC 07 0A 00 10 04
  7229)     40870.9  Rx         00C9  8  80 2B D3 0A 0B 00 10 04
  7261)     40883.6  Rx         00C9  8  80 2B E1 0D 0B 00 10 04
  7298)     40895.8  Rx         00C9  8  80 2B D4 00 0B 00 10 04
  7329)     40908.7  Rx         00C9  8  80 2B EB 07 0B 00 10 04
  7372)     40921.7  Rx         00C9  8  80 2B E0 0A 0B 00 10 04
  7407)     40933.7  Rx         00C9  8  80 2B D9 0D 0B 00 10 04
  7452)     40945.8  Rx         00C9  8  80 2B D5 00 0B 00 10 04
  7477)     40958.3  Rx         00C9  8  80 2B C8 07 0B 00 10 04
  7517)     40971.5  Rx         00C9  8  80 2B E1 0A 0B 00 10 04
  7548)     40983.6  Rx         00C9  8  80 2B D5 0D 0B 00 10 04
  7586)     40995.8  Rx         00C9  8  80 2B DC 00 0B 00 10 04
  7614)     41008.7  Rx         00C9  8  80 2B DA 07 0B 00 10 04
  7650)     41021.0  Rx         00C9  8  80 2B D4 0A 0B 00 10 04
  7686)     41034.1  Rx         00C9  8  80 2B E4 0D 0B 00 10 04
  7726)     41045.8  Rx         00C9  8  80 2B D1 00 0B 00 10 04
  7752)     41058.6  Rx         00C9  8  80 2B F1 07 0B 00 10 04
  7789)     41070.9  Rx         00C9  8  80 2B EF 0A 0B 00 10 04
  7822)     41083.9  Rx         00C9  8  80 2B EA 0D 0B 00 10 04
  7858)     41095.8  Rx         00C9  8  80 2B EB 00 0B 00 10 04
  7887)     41109.0  Rx         00C9  8  80 2B DE 07 0B 00 10 04
  7925)     41122.0  Rx         00C9  8  80 2B F3 0A 0B 00 10 04
  7959)     41134.2  Rx         00C9  8  80 2B E0 0D 0B 00 10 04
  7999)     41145.8  Rx         00C9  8  80 2B D5 00 0B 00 10 04
  8027)     41159.2  Rx         00C9  8  80 2B DB 07 0B 00 10 04
  8070)     41171.4  Rx         00C9  8  80 2B CD 0A 0B 00 10 04
  8100)     41183.8  Rx         00C9  8  80 2B CF 0D 0B 00 10 04
  8139)     41196.4  Rx         00C9  8  80 2B B1 00 0B 00 10 04
  8166)     41208.9  Rx         00C9  8  80 2B B4 07 0B 00 10 04
  8204)     41221.7  Rx         00C9  8  80 2B A7 0A 0B 00 10 04
  8239)     41234.4  Rx         00C9  8  80 2B 7F 0D 0B 00 10 04
  8279)     41245.8  Rx         00C9  8  80 2B 71 00 0B 00 10 04
  8305)     41258.7  Rx         00C9  8  80 2B 58 07 0B 00 10 04
  8344)     41271.6  Rx         00C9  8  80 2B 5A 0A 0B 00 10 04
  8375)     41283.7  Rx         00C9  8  80 2B 39 0D 0A 00 10 04
  8413)     41296.2  Rx         00C9  8  80 2B 3A 00 0A 00 10 04
  8439)     41308.7  Rx         00C9  8  80 2B 29 07 0A 00 10 04
  8479)     41321.7  Rx         00C9  8  80 2B 22 0A 0A 00 10 04
  8513)     41333.9  Rx         00C9  8  80 2B 29 0D 09 00 10 04
  8554)     41346.4  Rx         00C9  8  80 2B 17 00 09 00 10 04
  8579)     41359.2  Rx         00C9  8  80 2B 2D 07 09 00 10 04
  8618)     41371.5  Rx         00C9  8  80 2B 16 0A 09 00 10 04
  8649)     41383.8  Rx         00C9  8  80 2B 07 0D 09 00 10 04
  8685)     41395.9  Rx         00C9  8  80 2B 1A 00 08 00 10 04
  8717)     41408.6  Rx         00C9  8  80 2B 16 07 08 00 10 04
  8760)     41421.7  Rx         00C9  8  80 2B 22 0A 07 00 10 04
  8795)     41433.8  Rx         00C9  8  80 2B 12 0D 07 00 10 04
  8848)     41446.3  Rx         00C9  8  80 2B 26 00 07 00 10 04
  8876)     41459.1  Rx         00C9  8  80 2B 0B 07 07 00 10 04
  8917)     41471.6  Rx         00C9  8  80 2A EA 0A 07 00 10 04
  8949)     41484.1  Rx         00C9  8  80 2B 05 0D 07 00 10 04
  8989)     41495.9  Rx         00C9  8  80 2B 03 00 07 00 10 04
  9018)     41509.1  Rx         00C9  8  80 2A FE 07 07 00 10 04
  9054)     41521.6  Rx         00C9  8  80 2A DB 0A 07 00 10 04
  9091)     41533.9  Rx         00C9  8  80 2A DE 0D 07 00 10 04
  9131)     41546.4  Rx         00C9  8  80 2A C5 00 07 00 10 04
  9156)     41558.7  Rx         00C9  8  80 2A 97 07 06 00 10 04
  9196)     41571.9  Rx         00C9  8  80 2A AB 0A 06 00 10 04
  9226)     41583.7  Rx         00C9  8  80 2A 9B 0D 06 00 10 04
  9263)     41595.9  Rx         00C9  8  80 2A 87 00 06 00 10 04
  9291)     41608.8  Rx         00C9  8  80 2A 61 07 06 00 10 04
  9329)     41621.8  Rx         00C9  8  80 2A 6E 0A 06 00 10 04
  9365)     41634.2  Rx         00C9  8  80 2A 59 0D 06 00 10 04
  9405)     41645.9  Rx         00C9  8  80 2A 4F 00 06 00 10 04
  9433)     41658.8  Rx         00C9  8  80 2A 47 07 06 00 10 04
  9478)     41672.1  Rx         00C9  8  80 2A 3F 0A 06 00 10 04
  9507)     41683.7  Rx         00C9  8  80 2A 3A 0D 06 00 10 04
  9544)     41695.9  Rx         00C9  8  80 2A 1C 00 05 00 10 04
  9573)     41708.8  Rx         00C9  8  80 2A 23 07 05 00 10 04
  9611)     41722.0  Rx         00C9  8  80 29 FC 0A 05 00 10 04
  9645)     41734.3  Rx         00C9  8  80 29 FE 0D 05 00 10 04
  9686)     41745.9  Rx         00C9  8  80 29 EC 00 05 00 10 04
  9712)     41758.8  Rx         00C9  8  80 29 F0 07 05 00 10 04
  9753)     41772.1  Rx         00C9  8  80 29 F5 0A 05 00 10 04
  9781)     41783.8  Rx         00C9  8  80 29 F8 0D 05 00 10 04
  9818)     41795.9  Rx         00C9  8  80 2A 18 00 05 00 10 04
  9846)     41808.9  Rx         00C9  8  80 2A 24 07 05 00 10 04
  9889)     41822.4  Rx         00C9  8  80 2A 4D 0A 05 00 10 04
  9921)     41834.0  Rx         00C9  8  80 2A 3B 0D 05 00 10 04
  9960)     41846.0  Rx         00C9  8  80 2A 57 00 05 00 10 04
  9986)     41858.8  Rx         00C9  8  80 2A 63 07 05 00 10 04
 10027)     41872.2  Rx         00C9  8  80 2A 7D 0A 05 00 10 04
 10056)     41883.8  Rx         00C9  8  80 2A 91 0D 05 00 10 04
 10093)     41896.0  Rx         00C9  8  80 2A 9A 00 05 00 10 04
 10124)     41908.9  Rx         00C9  8  80 2A AD 07 05 00 10 04
 10167)     41921.8  Rx         00C9  8  80 2A A3 0A 05 00 10 04
 10201)     41934.2  Rx         00C9  8  80 2A B7 0D 05 00 10 04
 10247)     41946.0  Rx         00C9  8  80 2A C5 00 05 00 10 04
 10273)     41959.0  Rx         00C9  8  80 2A A7 07 04 00 10 04
 10312)     41971.6  Rx         00C9  8  80 2A A4 0A 04 00 10 04
 10343)     41983.8  Rx         00C9  8  80 2A 87 0D 04 00 10 04
 10381)     41996.3  Rx         00C9  8  80 2A 86 00 04 00 10 04
 10409)     42009.4  Rx         00C9  8  80 2A 64 07 04 00 10 04
 10446)     42021.7  Rx         00C9  8  80 2A 69 0A 04 00 10 04
 10481)     42034.0  Rx         00C9  8  80 2A 5E 0D 04 00 10 04
 10521)     42046.1  Rx         00C9  8  80 2A 3F 00 04 00 10 04
 10547)     42059.3  Rx         00C9  8  80 2A 35 07 04 00 10 04
 10586)     42071.6  Rx         00C9  8  80 2A 27 0A 04 00 10 04
 10616)     42083.8  Rx         00C9  8  80 2A 28 0D 04 00 10 04
 10653)     42096.0  Rx         00C9  8  80 2A 02 00 04 00 10 04
 10681)     42109.3  Rx         00C9  8  80 2A 01 07 04 00 10 04
 10719)     42121.7  Rx         00C9  8  80 29 FA 0A 04 00 10 04
 10754)     42134.0  Rx         00C9  8  80 29 FB 0D 04 00 10 04
 10793)     42146.0  Rx         00C9  8  80 29 FF 00 04 00 10 04
 10821)     42159.2  Rx         00C9  8  80 29 F6 07 04 00 10 04
 10864)     42171.6  Rx         00C9  8  80 29 ED 0A 04 00 10 04
 10895)     42183.9  Rx         00C9  8  80 29 EB 0D 04 00 10 04
 10934)     42196.7  Rx         00C9  8  80 29 F7 00 04 00 10 04
 10960)     42209.2  Rx         00C9  8  80 29 EB 07 04 00 10 04
 10999)     42221.9  Rx         00C9  8  80 29 EB 0A 04 00 10 04
 11033)     42234.3  Rx         00C9  8  80 29 DF 0D 04 00 10 04
 11074)     42246.3  Rx         00C9  8  80 29 DB 00 04 00 10 04
 11100)     42258.9  Rx         00C9  8  80 29 E7 07 04 00 10 04
 11139)     42271.8  Rx         00C9  8  80 29 E6 0A 04 00 10 04
 11170)     42283.8  Rx         00C9  8  80 29 E1 0D 04 00 10 04
 11206)     42296.0  Rx         00C9  8  80 29 CF 00 04 00 10 04
 11235)     42309.0  Rx         00C9  8  80 29 E7 07 04 00 10 04
 11274)     42322.1  Rx         00C9  8  80 29 CB 0A 04 00 10 04
 11308)     42334.5  Rx         00C9  8  80 29 D7 0D 04 00 10 04
 11349)     42346.4  Rx         00C9  8  80 29 C0 00 04 00 10 04
 11366)     42358.6  Rx         00C9  8  80 29 AD 07 04 00 10 04
 11408)     42372.0  Rx         00C9  8  80 29 CA 0A 04 00 10 04
 11437)     42383.9  Rx         00C9  8  80 29 C6 0D 04 00 10 04
 11475)     42396.0  Rx         00C9  8  80 29 C9 00 04 00 10 04
 11507)     42409.2  Rx         00C9  8  80 29 B3 07 04 00 10 04
 11550)     42421.8  Rx         00C9  8  80 29 C0 0A 04 00 10 04
 11586)     42434.5  Rx         00C9  8  80 29 9F 0D 04 00 10 04
 11639)     42446.6  Rx         00C9  8  80 29 99 00 04 00 10 04
 11667)     42459.0  Rx         00C9  8  80 29 8C 07 03 00 10 04
 11709)     42471.7  Rx         00C9  8  80 29 77 0A 03 00 10 04
 11742)     42484.4  Rx         00C9  8  80 29 82 0D 02 00 10 04
 11782)     42496.2  Rx         00C9  8  80 29 66 00 02 00 10 04
 11810)     42509.0  Rx         00C9  8  80 29 5D 07 02 00 10 04
 11848)     42521.8  Rx         00C9  8  80 29 58 0A 02 00 10 04
 11882)     42534.1  Rx         00C9  8  80 29 68 0D 02 00 10 04
 11923)     42546.7  Rx         00C9  8  80 29 5A 00 01 00 10 04
 11948)     42559.0  Rx         00C9  8  80 29 54 07 01 00 10 04
 11987)     42571.9  Rx         00C9  8  80 29 37 0A 01 00 10 04
 12018)     42583.9  Rx         00C9  8  80 29 36 0D 01 00 10 04
 12054)     42596.4  Rx         00C9  8  80 29 16 00 01 00 10 04
 12082)     42609.2  Rx         00C9  8  80 29 16 07 01 00 10 04
 12120)     42621.8  Rx         00C9  8  80 29 11 0A 01 00 10 04
 12157)     42634.1  Rx         00C9  8  80 28 F5 0D 01 00 10 04
 12196)     42646.2  Rx         00C9  8  80 28 F8 00 01 00 10 04
 12225)     42659.3  Rx         00C9  8  80 28 E8 07 01 00 10 04
 12271)     42672.6  Rx         00C9  8  80 29 07 0A 01 00 10 04
 12298)     42684.2  Rx         00C9  8  80 28 F0 0D 01 00 10 04
 12336)     42696.5  Rx         00C9  8  80 28 FB 00 01 00 10 04
 12364)     42709.2  Rx         00C9  8  80 28 F1 07 01 00 10 04
 12402)     42722.1  Rx         00C9  8  80 28 F8 0A 01 00 10 04
 12437)     42734.2  Rx         00C9  8  80 29 0C 0D 01 00 10 04
 12477)     42746.7  Rx         00C9  8  80 29 11 00 01 00 10 04
 12503)     42759.0  Rx         00C9  8  80 29 1D 07 01 00 10 04
 12542)     42771.8  Rx         00C9  8  80 29 18 0A 01 00 10 04
 12573)     42784.3  Rx         00C9  8  80 29 28 0D 01 00 10 04
 12609)     42796.2  Rx         00C9  8  80 29 23 00 01 00 10 04
 12638)     42809.4  Rx         00C9  8  80 29 2A 07 01 00 10 04
 12676)     42821.9  Rx         00C9  8  80 29 0E 0A 01 00 10 04
 12712)     42834.6  Rx         00C9  8  80 29 10 0D 01 00 10 04
 12751)     42846.1  Rx         00C9  8  80 29 17 00 01 00 10 04
 12778)     42859.0  Rx         00C9  8  80 29 0B 07 01 00 10 04
 12817)     42872.2  Rx         00C9  8  80 28 F5 0A 01 00 10 04
 12848)     42884.2  Rx         00C9  8  80 28 F4 0D 01 00 10 04
 12883)     42896.2  Rx         00C9  8  80 28 EF 00 01 00 10 04
 12914)     42909.0  Rx         00C9  8  80 28 DA 07 01 00 10 04
 12958)     42922.3  Rx         00C9  8  80 28 D5 0A 01 00 10 04
 12992)     42934.2  Rx         00C9  8  80 28 C2 0D 01 00 10 04
 13039)     42946.8  Rx         00C9  8  80 28 CB 00 01 00 10 03
 13064)     42959.0  Rx         00C9  8  80 28 AA 07 01 00 10 03
 13104)     42972.1  Rx         00C9  8  80 28 AC 0A 01 00 10 03
 13133)     42984.0  Rx         00C9  8  80 28 90 0D 01 00 10 03
 13171)     42996.2  Rx         00C9  8  80 28 81 00 01 00 10 03
 13199)     43009.0  Rx         00C9  8  80 28 7A 07 01 00 10 03
 13238)     43022.3  Rx         00C9  8  80 28 79 0A 01 00 10 03
 13272)     43034.2  Rx         00C9  8  80 28 7D 0D 01 00 10 03
 13311)     43046.2  Rx         00C9  8  80 28 6A 00 01 00 10 03
 13337)     43059.1  Rx         00C9  8  80 28 77 07 01 00 10 03
 13378)     43072.4  Rx         00C9  8  80 28 5E 0A 01 00 10 03
 13407)     43084.2  Rx         00C9  8  80 28 62 0D 01 00 10 03
 13445)     43097.0  Rx         00C9  8  80 28 4E 00 01 00 10 03
 13472)     43109.3  Rx         00C9  8  80 28 6F 07 01 00 10 03
 13510)     43121.9  Rx         00C9  8  80 28 61 0A 01 00 10 03
 13544)     43134.6  Rx         00C9  8  80 28 71 0D 01 00 10 03
 13584)     43146.2  Rx         00C9  8  80 28 4F 00 01 00 10 03
 13612)     43159.0  Rx         00C9  8  80 28 46 07 01 00 10 03
 13655)     43172.0  Rx         00C9  8  80 28 66 0A 01 00 10 03
 13678)     43184.3  Rx         00C9  8  80 28 61 0D 01 00 10 03
 13716)     43196.2  Rx         00C9  8  80 28 5E 00 01 00 10 03
 13745)     43209.1  Rx         00C9  8  80 28 58 07 01 00 10 03
 13782)     43221.9  Rx         00C9  8  80 28 59 0A 01 00 10 03
 13817)     43234.6  Rx         00C9  8  80 28 3B 0D 01 00 10 03
 13859)     43246.9  Rx         00C9  8  80 28 41 00 01 00 10 03
 13884)     43259.6  Rx         00C9  8  80 28 35 07 01 00 10 03
 13924)     43272.2  Rx         00C9  8  80 28 3C 0A 01 00 10 03
 13953)     43284.1  Rx         00C9  8  80 28 0A 0D 01 00 10 03
 13991)     43296.8  Rx         00C9  8  80 28 19 00 01 00 10 03
 14018)     43309.3  Rx         00C9  8  80 27 FB 07 01 00 10 03
 14056)     43322.0  Rx         00C9  8  80 27 ED 0A 01 00 10 03
 14092)     43334.4  Rx         00C9  8  80 27 E3 0D 01 00 10 03
 14131)     43346.4  Rx         00C9  8  80 27 DF 00 01 00 10 03
 14157)     43359.5  Rx         00C9  8  80 27 E0 07 01 00 10 03
 14196)     43372.0  Rx         00C9  8  80 27 D8 0A 01 00 10 03
 14227)     43384.2  Rx         00C9  8  80 27 D3 0D 01 00 10 03
 14264)     43396.3  Rx         00C9  8  80 27 C8 00 01 00 10 03
 14296)     43409.1  Rx         00C9  8  80 27 C6 07 01 00 10 03
 14341)     43422.4  Rx         00C9  8  80 27 B7 0A 01 00 10 03
 14375)     43434.7  Rx         00C9  8  80 27 C0 0D 01 00 10 03
 14428)     43446.8  Rx         00C9  8  80 27 A4 00 01 00 10 03
 14456)     43459.5  Rx         00C9  8  80 27 BB 07 01 00 10 03
 14497)     43472.3  Rx         00C9  8  80 27 AD 0A 01 00 10 03
 14528)     43484.2  Rx         00C9  8  80 27 C1 0D 01 00 10 03
 14569)     43496.6  Rx         00C9  8  80 27 B7 00 01 00 10 03
 14597)     43509.3  Rx         00C9  8  80 27 B9 07 01 00 10 03
 14634)     43522.0  Rx         00C9  8  80 27 BC 0A 02 00 10 03
 14669)     43534.3  Rx         00C9  8  80 27 A0 0D 02 00 10 03
 14709)     43546.4  Rx         00C9  8  80 27 AA 00 03 00 10 03
 14735)     43559.2  Rx         00C9  8  80 27 B4 07 03 00 10 03
 14776)     43572.5  Rx         00C9  8  80 27 B1 0A 03 00 10 03
 14804)     43584.3  Rx         00C9  8  80 27 A9 0D 03 00 10 03
 14841)     43596.3  Rx         00C9  8  80 27 A4 00 04 00 10 03
 14869)     43609.0  Rx         00C9  8  80 27 99 07 04 00 10 03
 14907)     43622.1  Rx         00C9  8  80 27 A2 0A 04 00 10 03
 14944)     43634.8  Rx         00C9  8  80 27 8B 0D 04 00 10 03
 14984)     43647.0  Rx         00C9  8  80 27 89 00 04 00 10 03
 15011)     43659.3  Rx         00C9  8  80 27 72 07 05 00 10 03
 15054)     43672.1  Rx         00C9  8  80 27 85 0A 05 00 10 03
 15085)     43684.6  Rx         00C9  8  80 27 71 0D 05 00 10 03
 15124)     43696.8  Rx         00C9  8  80 27 81 00 05 00 10 03
 15151)     43709.3  Rx         00C9  8  80 27 66 07 05 00 10 03
 15189)     43722.1  Rx         00C9  8  80 27 6D 0A 05 00 10 03
 15223)     43734.6  Rx         00C9  8  80 27 58 0D 05 00 10 03
 15264)     43746.4  Rx         00C9  8  80 27 63 00 05 00 10 03
 15290)     43759.0  Rx         00C9  8  80 27 6C 07 07 00 10 03
 15329)     43772.0  Rx         00C9  8  80 27 43 0A 08 00 10 03
 15360)     43784.3  Rx         00C9  8  80 27 5E 0D 09 00 10 03
 15396)     43796.4  Rx         00C9  8  80 27 71 00 0A 00 10 03
 15425)     43809.6  Rx         00C9  8  80 27 80 07 0A 00 10 03
 15462)     43822.2  Rx         00C9  8  80 27 85 0A 0A 00 10 03
 15499)     43834.4  Rx         00C9  8  80 27 91 0D 0A 00 10 03
 15539)     43846.4  Rx         00C9  8  80 27 92 00 0B 00 10 03
 15565)     43859.2  Rx         00C9  8  80 27 AA 07 0B 00 10 03
 15604)     43871.9  Rx         00C9  8  80 27 A4 0A 0B 00 10 03
 15634)     43884.4  Rx         00C9  8  80 27 B6 0D 0C 00 10 03
 15671)     43896.4  Rx         00C9  8  80 27 A5 00 0C 00 10 03
 15702)     43909.7  Rx         00C9  8  80 27 B9 07 0C 00 10 03
 15748)     43922.9  Rx         00C9  8  80 27 AA 0A 0C 00 10 03
 15780)     43934.3  Rx         00C9  8  80 27 C1 0D 0C 00 10 03
 15826)     43946.8  Rx         00C9  8  80 27 B2 00 0D 00 10 03
 15851)     43959.4  Rx         00C9  8  80 27 BE 07 0D 00 10 03
 15889)     43972.0  Rx         00C9  8  80 27 AA 0A 0D 00 10 03
 15921)     43984.2  Rx         00C9  8  80 27 99 0D 0D 00 10 03
 15959)     43996.4  Rx         00C9  8  80 27 C8 00 0E 00 10 03
 15987)     44009.3  Rx         00C9  8  80 27 AC 07 0E 00 10 03
 16027)     44022.7  Rx         00C9  8  80 27 AB 0A 0F 00 10 03
 16059)     44034.7  Rx         00C9  8  80 27 A9 0D 0F 00 10 03
 16099)     44046.5  Rx         00C9  8  80 27 A6 00 10 00 10 03
 16125)     44059.3  Rx         00C9  8  80 27 9E 07 11 00 10 03
 16164)     44072.1  Rx         00C9  8  80 27 9E 0A 11 00 10 03
 16195)     44084.3  Rx         00C9  8  80 27 9B 0D 11 00 10 03
 16232)     44097.0  Rx         00C9  8  80 27 B1 00 11 00 10 03
 16260)     44109.5  Rx         00C9  8  80 27 A1 07 12 00 10 03
 16297)     44122.2  Rx         00C9  8  80 27 B5 0A 12 00 10 03
 16332)     44135.0  Rx         00C9  8  80 27 9A 0D 12 00 10 03
 16372)     44146.5  Rx         00C9  8  80 27 A7 00 12 00 10 03
 16400)     44159.3  Rx         00C9  8  80 27 90 07 12 00 10 03
 16444)     44172.4  Rx         00C9  8  80 27 A2 0A 12 00 10 03
 16473)     44184.4  Rx         00C9  8  80 27 98 0D 12 00 10 03
 16511)     44196.5  Rx         00C9  8  80 27 97 00 12 00 10 03
 16539)     44209.2  Rx         00C9  8  80 27 A9 07 12 00 10 03
 16577)     44222.1  Rx         00C9  8  80 27 89 0A 12 00 10 03
 16612)     44234.9  Rx         00C9  8  80 27 81 0D 12 00 10 03
 16653)     44247.0  Rx         00C9  8  80 27 7E 00 12 00 10 03
 16679)     44259.5  Rx         00C9  8  80 27 7D 07 12 00 10 03
 16717)     44272.2  Rx         00C9  8  80 27 73 0A 12 00 10 03
 16748)     44284.4  Rx         00C9  8  80 27 72 0D 12 00 10 03
 16785)     44296.5  Rx         00C9  8  80 27 62 00 12 00 10 03
 16812)     44309.4  Rx         00C9  8  80 27 62 07 12 00 10 03
 16853)     44322.8  Rx         00C9  8  80 27 4D 0A 12 00 10 03
 16886)     44335.1  Rx         00C9  8  80 27 55 0D 12 00 10 03
 16926)     44346.6  Rx         00C9  8  80 27 46 00 12 00 10 03
 16952)     44359.4  Rx         00C9  8  80 27 4E 07 12 00 10 03
 16993)     44372.7  Rx         00C9  8  80 27 37 0A 12 00 10 03
 17022)     44384.5  Rx         00C9  8  80 27 45 0D 12 00 10 03
 17060)     44396.8  Rx         00C9  8  80 27 2D 00 12 00 10 03
 17091)     44409.3  Rx         00C9  8  80 27 3E 07 12 00 10 03
 17135)     44422.6  Rx         00C9  8  80 27 31 0A 12 00 10 03
 17169)     44434.8  Rx         00C9  8  80 27 41 0D 12 00 10 03
 17222)     44447.0  Rx         00C9  8  80 27 41 00 12 00 10 03
 17250)     44459.4  Rx         00C9  8  80 27 2B 07 12 00 10 03
 17293)     44472.5  Rx         00C9  8  80 27 4E 0A 12 00 10 03
 17327)     44484.4  Rx         00C9  8  80 27 30 0D 12 00 10 03
 17366)     44496.6  Rx         00C9  8  80 27 27 00 12 00 10 03
 17394)     44509.7  Rx         00C9  8  80 27 2A 07 13 00 10 03
 17433)     44522.6  Rx         00C9  8  80 27 32 0A 14 00 10 03
 17467)     44534.5  Rx         00C9  8  80 27 2C 0D 15 00 10 03
 17507)     44546.9  Rx         00C9  8  80 27 1D 00 17 00 10 03
 17532)     44559.4  Rx         00C9  8  80 27 19 07 19 00 10 03
 17571)     44572.2  Rx         00C9  8  80 27 1A 0A 1A 00 10 03
 17602)     44584.4  Rx         00C9  8  80 27 13 0D 1C 00 10 03
 17639)     44596.6  Rx         00C9  8  80 27 27 00 1D 00 10 03
 17667)     44609.7  Rx         00C9  8  80 27 13 07 1F 00 10 03
 17705)     44622.4  Rx         00C9  8  80 27 2D 0A 1F 00 10 03
 17741)     44635.2  Rx         00C9  8  80 27 1B 0D 20 00 10 03
 17782)     44647.2  Rx         00C9  8  80 27 2E 00 20 00 10 03
 17809)     44659.7  Rx         00C9  8  80 27 2E 07 20 00 10 03
 17852)     44672.2  Rx         00C9  8  80 27 51 0A 20 00 10 03
 17883)     44684.5  Rx         00C9  8  80 27 53 0D 20 00 10 03
 17921)     44697.1  Rx         00C9  8  80 27 72 00 20 00 10 03
 17949)     44709.7  Rx         00C9  8  80 27 73 07 20 00 10 03
 17986)     44722.3  Rx         00C9  8  80 27 87 0A 20 00 10 03
 18021)     44734.6  Rx         00C9  8  80 27 B5 0D 20 00 10 03
 18062)     44746.7  Rx         00C9  8  80 27 AD 00 21 00 10 03
 18088)     44759.5  Rx         00C9  8  80 27 B9 07 21 00 10 03
 18128)     44772.5  Rx         00C9  8  80 27 C5 0A 21 00 10 03
 18157)     44784.5  Rx         00C9  8  80 27 D1 0D 21 00 10 03
 18194)     44796.6  Rx         00C9  8  80 27 D5 00 21 00 10 03
 18222)     44809.3  Rx         00C9  8  80 27 CD 07 21 00 10 03
 18260)     44822.3  Rx         00C9  8  80 27 AE 0A 21 00 10 03
 18297)     44835.1  Rx         00C9  8  80 27 AC 0D 21 00 10 03
 18337)     44847.2  Rx         00C9  8  80 27 8E 00 21 00 10 03
 18362)     44859.6  Rx         00C9  8  80 27 95 07 21 00 10 03
 18403)     44872.8  Rx         00C9  8  80 27 6C 0A 21 00 10 03
 18432)     44884.7  Rx         00C9  8  80 27 62 0D 21 00 10 03
 18470)     44897.0  Rx         00C9  8  80 27 39 00 21 00 10 03
 18500)     44909.6  Rx         00C9  8  80 27 32 07 21 00 10 03
 18545)     44922.9  Rx         00C9  8  80 27 0D 0A 21 00 10 03
 18577)     44935.0  Rx         00C9  8  80 27 0D 0D 21 00 10 03
 18624)     44947.0  Rx         00C9  8  80 26 F8 00 21 00 10 03
 18649)     44959.5  Rx         00C9  8  80 26 F0 07 21 00 10 03
 18688)     44972.3  Rx         00C9  8  80 26 FD 0A 21 00 10 03
 18719)     44984.5  Rx         00C9  8  80 26 D6 0D 21 00 10 03
 18756)     44996.7  Rx         00C9  8  80 26 F3 00 21 00 10 03
 18784)     45009.6  Rx         00C9  8  80 27 04 07 21 00 10 03
 18826)     45023.2  Rx         00C9  8  80 27 17 0A 21 00 10 03
 18857)     45035.1  Rx         00C9  8  80 27 2B 0D 22 00 10 03
 18897)     45046.7  Rx         00C9  8  80 27 42 00 22 00 10 03
 18923)     45059.6  Rx         00C9  8  80 27 54 07 23 00 10 03
 18962)     45072.3  Rx         00C9  8  80 27 72 0A 23 00 10 03
 18992)     45084.6  Rx         00C9  8  80 27 83 0D 23 00 10 03
 19029)     45096.7  Rx         00C9  8  80 27 A4 00 23 00 10 03
 19057)     45109.8  Rx         00C9  8  80 27 AF 07 24 00 10 03
 19095)     45122.5  Rx         00C9  8  80 27 D8 0A 24 00 10 03
 19130)     45135.3  Rx         00C9  8  80 27 DA 0D 24 00 10 03
 19170)     45147.3  Rx         00C9  8  80 28 09 00 24 00 10 03
 19197)     45159.6  Rx         00C9  8  80 28 11 07 24 00 10 03
 19241)     45172.6  Rx         00C9  8  80 28 47 0A 24 00 10 03
 19270)     45184.5  Rx         00C9  8  80 28 62 0D 24 00 10 03
 19309)     45196.8  Rx         00C9  8  80 28 7C 00 24 00 10 03
 19336)     45209.6  Rx         00C9  8  80 28 9B 07 24 00 10 03
 19376)     45222.7  Rx         00C9  8  80 28 AB 0A 24 00 10 03
 19409)     45234.7  Rx         00C9  8  80 28 B9 0D 24 00 10 03
 19450)     45246.8  Rx         00C9  8  80 28 C2 00 24 00 10 04
 19476)     45259.7  Rx         00C9  8  80 28 D2 07 24 00 10 04
 19517)     45272.8  Rx         00C9  8  80 28 C9 0A 24 00 10 04
 19546)     45284.7  Rx         00C9  8  80 28 DD 0D 24 00 10 04
 19583)     45297.3  Rx         00C9  8  80 28 BA 00 24 00 10 04
 19610)     45309.6  Rx         00C9  8  80 28 B8 07 24 00 10 04
 19649)     45322.8  Rx         00C9  8  80 28 98 0A 24 00 10 04
 19683)     45334.8  Rx         00C9  8  80 28 85 0D 24 00 10 04
 19724)     45346.8  Rx         00C9  8  80 28 9B 00 24 00 10 04
 19750)     45359.6  Rx         00C9  8  80 28 73 07 24 00 10 04
 19791)     45372.8  Rx         00C9  8  80 28 60 0A 24 00 10 04
 19819)     45384.6  Rx         00C9  8  80 28 45 0D 24 00 10 04
 19856)     45396.8  Rx         00C9  8  80 28 2F 00 24 00 10 04
 19888)     45409.5  Rx         00C9  8  80 28 10 07 24 00 10 04
 19931)     45422.6  Rx         00C9  8  80 28 08 0A 24 00 10 04
 19969)     45436.2  Rx         00C9  8  80 27 E8 0D 24 00 10 04
 20019)     45447.3  Rx         00C9  8  80 27 EB 00 24 00 10 05
 20047)     45459.8  Rx         00C9  8  80 27 CE 07 24 00 10 05
 20088)     45472.4  Rx         00C9  8  80 27 DD 0A 24 00 10 05
 20120)     45484.6  Rx         00C9  8  80 27 CA 0D 24 00 10 05
 20161)     45497.3  Rx         00C9  8  80 27 E3 00 24 00 10 05
 20188)     45509.8  Rx         00C9  8  80 27 E1 07 24 00 10 05
 20227)     45522.6  Rx         00C9  8  80 27 F4 0A 24 00 10 05
 20261)     45534.8  Rx         00C9  8  80 28 09 0D 24 00 10 05
 20302)     45547.1  Rx         00C9  8  80 28 22 00 25 00 10 05
 20327)     45559.9  Rx         00C9  8  80 28 3B 07 25 00 10 05
 20366)     45572.4  Rx         00C9  8  80 28 51 0A 25 00 10 05
 20397)     45584.6  Rx         00C9  8  80 28 70 0D 25 00 10 05
 20433)     45596.8  Rx         00C9  8  80 28 83 00 25 00 10 05
 20462)     45609.9  Rx         00C9  8  80 28 AF 07 25 00 10 05
 20500)     45622.8  Rx         00C9  8  80 28 B7 0A 25 00 10 05
 20536)     45635.2  Rx         00C9  8  80 28 EA 0D 25 00 10 05
 20576)     45646.9  Rx         00C9  8  80 28 F8 00 25 00 10 06
 20604)     45659.8  Rx         00C9  8  80 29 32 07 25 00 10 06
 20647)     45672.4  Rx         00C9  8  80 29 52 0A 25 00 10 06
 20677)     45684.7  Rx         00C9  8  80 29 77 0D 25 00 10 06
 20716)     45697.5  Rx         00C9  8  80 29 98 00 25 00 10 06
 20743)     45709.5  Rx         00C9  8  80 29 AC 07 25 00 10 06
 20781)     45722.5  Rx         00C9  8  80 29 C6 0A 25 00 10 06
 20818)     45736.2  Rx         00C9  8  80 29 C1 0D 25 00 10 06
 20857)     45747.2  Rx         00C9  8  80 29 D9 00 25 00 10 06
 20882)     45759.7  Rx         00C9  8  80 29 DB 07 25 00 10 06
 20922)     45772.6  Rx         00C9  8  80 29 F2 0A 25 00 10 06
 20952)     45784.7  Rx         00C9  8  80 29 FA 0D 25 00 10 06
 20990)     45797.2  Rx         00C9  8  80 29 F3 00 25 00 10 06
 21017)     45810.1  Rx         00C9  8  80 29 ED 07 25 00 10 06
 21055)     45822.5  Rx         00C9  8  80 29 EF 0A 25 00 10 06
 21091)     45835.3  Rx         00C9  8  80 29 F6 0D 25 00 10 06
 21132)     45847.4  Rx         00C9  8  80 29 EC 00 25 00 10 06
 21157)     45859.8  Rx         00C9  8  80 29 E5 07 25 00 10 06
 21196)     45872.4  Rx         00C9  8  80 29 C3 0A 25 00 10 06
 21227)     45884.7  Rx         00C9  8  80 29 C9 0D 26 00 10 06
 21264)     45897.2  Rx         00C9  8  80 29 CA 00 26 00 10 06
 21294)     45910.1  Rx         00C9  8  80 29 AC 07 27 00 10 06
 21337)     45922.7  Rx         00C9  8  80 29 A6 0A 27 00 10 06
 21372)     45934.8  Rx         00C9  8  80 29 99 0D 28 00 10 06
 21419)     45947.4  Rx         00C9  8  80 29 98 00 28 00 10 07
 21444)     45959.9  Rx         00C9  8  80 29 73 07 28 00 10 07
 21484)     45972.7  Rx         00C9  8  80 29 8A 0A 29 00 10 07
 21513)     45984.7  Rx         00C9  8  80 29 76 0D 29 00 10 07
 21552)     45997.4  Rx         00C9  8  80 29 81 00 29 00 10 07
 21579)     46009.6  Rx         00C9  8  80 29 94 07 29 00 10 07
 21617)     46022.6  Rx         00C9  8  80 29 83 0A 29 00 10 07
 21652)     46035.3  Rx         00C9  8  80 29 81 0D 29 00 10 07
 21691)     46046.9  Rx         00C9  8  80 29 7D 00 29 00 10 07
 21717)     46059.7  Rx         00C9  8  80 29 97 07 29 00 10 07
 21759)     46073.1  Rx         00C9  8  80 29 9C 0A 29 00 10 07
 21787)     46084.9  Rx         00C9  8  80 29 A2 0D 29 00 10 07
 21825)     46097.2  Rx         00C9  8  80 29 A3 00 29 00 10 07
 21852)     46109.9  Rx         00C9  8  80 29 C5 07 2A 00 10 07
 21890)     46122.6  Rx         00C9  8  80 29 D8 0A 2A 00 10 07
 21924)     46135.0  Rx         00C9  8  80 29 D7 0D 2A 00 10 07
 21965)     46147.5  Rx         00C9  8  80 29 EB 00 2A 00 10 08
 21992)     46159.7  Rx         00C9  8  80 29 FC 07 2A 00 10 08
 22034)     46172.5  Rx         00C9  8  80 2A 1B 0A 2A 00 10 08
 22066)     46184.8  Rx         00C9  8  80 2A 15 0D 2A 00 10 08
 22104)     46197.5  Rx         00C9  8  80 2A 34 00 2A 00 10 08
 22131)     46210.0  Rx         00C9  8  80 2A 22 07 2A 00 10 08
 22169)     46222.7  Rx         00C9  8  80 2A 2F 0A 2A 00 10 08
 22204)     46235.0  Rx         00C9  8  80 2A 43 0D 2A 00 10 08
 22245)     46247.5  Rx         00C9  8  80 2A 51 00 2A 00 10 08
 22271)     46259.8  Rx         00C9  8  80 2A 59 07 2A 00 10 08
 22311)     46272.8  Rx         00C9  8  80 2A 43 0A 2A 00 10 08
 22340)     46284.8  Rx         00C9  8  80 2A 61 0D 2A 00 10 08
 22377)     46297.3  Rx         00C9  8  80 2A 51 00 2A 00 10 08
 22397)     46310.0  Rx         00C9  8  80 2A 64 07 2A 00 10 08
 22436)     46322.7  Rx         00C9  8  80 2A 7B 0A 2A 00 10 08
 22473)     46335.7  Rx         00C9  8  80 2A 67 0D 2A 00 10 08
 22512)     46347.3  Rx         00C9  8  80 2A 66 00 2A 00 10 09
 22537)     46359.8  Rx         00C9  8  80 2A 59 07 2A 00 10 09
 22579)     46373.2  Rx         00C9  8  80 2A 6C 0A 2A 00 10 09
 22608)     46385.2  Rx         00C9  8  80 2A 65 0D 2A 00 10 09
 22646)     46397.2  Rx         00C9  8  80 2A 7E 00 2A 00 10 09
 22678)     46410.1  Rx         00C9  8  80 2A 7F 07 2A 00 10 09
 22721)     46422.8  Rx         00C9  8  80 2A 88 0A 2A 00 10 09
 22757)     46435.7  Rx         00C9  8  80 2A 84 0D 2A 00 10 09
 22809)     46447.4  Rx         00C9  8  80 2A 7B 00 2A 00 10 0A
 22837)     46459.9  Rx         00C9  8  80 2A 8D 07 2A 00 10 0A
 22878)     46472.8  Rx         00C9  8  80 2A 8C 0A 2A 00 10 0A
 22911)     46484.9  Rx         00C9  8  80 2A AD 0D 2A 00 10 0A
 22951)     46497.4  Rx         00C9  8  80 2A A6 00 2A 00 10 0A
 22979)     46509.9  Rx         00C9  8  80 2A 9F 07 2A 00 10 0A
 23019)     46523.1  Rx         00C9  8  80 2A BB 0A 2A 00 10 0A
 23052)     46534.9  Rx         00C9  8  80 2A C7 0D 2A 00 10 0A
 23094)     46547.4  Rx         00C9  8  80 2A E4 00 2A 00 10 0B
 23119)     46560.1  Rx         00C9  8  80 2A E8 07 2A 00 10 0B
 23160)     46573.0  Rx         00C9  8  80 2A FF 0A 2A 00 10 0B
 23188)     46585.0  Rx         00C9  8  80 2A F2 0D 2A 00 10 0B
 23226)     46597.4  Rx         00C9  8  80 2A F8 00 2A 00 10 0B
 23253)     46610.6  Rx         00C9  8  80 2B 08 07 2A 00 10 0B
 23291)     46622.7  Rx         00C9  8  80 2B 13 0A 2A 00 10 0B
 23328)     46635.7  Rx         00C9  8  80 2B 33 0D 2A 00 10 0B
 23368)     46647.4  Rx         00C9  8  80 2B 2C 00 2A 00 10 0B
 23395)     46659.9  Rx         00C9  8  80 2B 55 07 2A 00 10 0B
 23440)     46673.1  Rx         00C9  8  80 2B 68 0A 2A 00 10 0B
 23469)     46684.9  Rx         00C9  8  80 2B 88 0D 2A 00 10 0B
 23508)     46697.6  Rx         00C9  8  80 2B A9 00 2A 00 10 0B
 23535)     46709.9  Rx         00C9  8  80 2B C4 07 2A 00 10 0B
 23574)     46723.0  Rx         00C9  8  80 2B FD 0A 2A 00 10 0B
 23607)     46735.0  Rx         00C9  8  80 2C 06 0D 2A 00 10 0B
 23649)     46747.4  Rx         00C9  8  80 2C 2E 00 2A 00 10 0C
 23674)     46759.8  Rx         00C9  8  80 2C 3E 07 2A 00 10 0C
 23713)     46772.6  Rx         00C9  8  80 2C 59 0A 2A 00 10 0C
 23744)     46785.5  Rx         00C9  8  80 2C 6C 0D 2A 00 10 0C
 23781)     46797.5  Rx         00C9  8  80 2C 6F 00 2A 00 10 0C
 23809)     46810.1  Rx         00C9  8  80 2C 95 07 2A 00 10 0C
 23846)     46822.7  Rx         00C9  8  80 2C 93 0A 2A 00 10 0C
 23881)     46835.5  Rx         00C9  8  80 2C 9C 0D 2A 00 10 0C
 23924)     46847.4  Rx         00C9  8  80 2C A7 00 2A 00 10 0C
 23949)     46860.0  Rx         00C9  8  80 2C A5 07 2A 00 10 0C
 23988)     46872.6  Rx         00C9  8  80 2C C1 0A 2A 00 10 0C
 24018)     46885.0  Rx         00C9  8  80 2C BB 0D 2A 00 10 0C
 24056)     46897.7  Rx         00C9  8  80 2C 95 00 2A 00 10 0C
 24086)     46909.9  Rx         00C9  8  80 2C 8E 07 2A 00 10 0C
 24130)     46923.2  Rx         00C9  8  80 2C 70 0A 2A 00 10 0C
 24164)     46935.2  Rx         00C9  8  80 2C 84 0D 2A 00 10 0C
 24210)     46947.6  Rx         00C9  8  80 2C 72 00 2A 00 10 0D
 24235)     46960.0  Rx         00C9  8  80 2C 5F 07 2A 00 10 0D
 24274)     46972.7  Rx         00C9  8  80 2C 55 0A 2A 00 10 0D
 24305)     46985.5  Rx         00C9  8  80 2C 44 0D 2A 00 10 0D
 24344)     46997.6  Rx         00C9  8  80 2C 4E 00 2A 00 10 0D
 24371)     47010.0  Rx         00C9  8  80 2C 39 07 2A 00 10 0D
 24409)     47022.8  Rx         00C9  8  80 2C 27 0A 2A 00 10 0D
 24443)     47035.8  Rx         00C9  8  80 2C 3A 0D 2A 00 10 0D
 24484)     47047.4  Rx         00C9  8  80 2C 2B 00 2A 00 10 0D
 24509)     47060.5  Rx         00C9  8  80 2C 3F 07 2A 00 10 0D
 24549)     47072.9  Rx         00C9  8  80 2C 3D 0A 2A 00 10 0D
 24579)     47085.2  Rx         00C9  8  80 2C 4F 0D 2A 00 10 0D
 24616)     47097.5  Rx         00C9  8  80 2C 5D 00 2A 00 10 0D
 24644)     47110.0  Rx         00C9  8  80 2C 69 07 2A 00 10 0D
 24683)     47123.2  Rx         00C9  8  80 2C 78 0A 2A 00 10 0D
 24716)     47135.6  Rx         00C9  8  80 2C 6A 0D 2A 00 10 0D
 24757)     47147.5  Rx         00C9  8  80 2C 86 00 2A 00 10 0E
 24784)     47160.0  Rx         00C9  8  80 2C AB 07 2A 00 10 0E
 24830)     47173.3  Rx         00C9  8  80 2C 8C 0A 2A 00 10 0E
 24857)     47185.0  Rx         00C9  8  80 2C 96 0D 2A 00 10 0E
 24896)     47197.6  Rx         00C9  8  80 2C 97 00 2A 00 10 0E
 24923)     47209.9  Rx         00C9  8  80 2C BB 07 2A 00 10 0E
 24961)     47222.8  Rx         00C9  8  80 2C D1 0A 2A 00 10 0E
 24996)     47235.6  Rx         00C9  8  80 2C D4 0D 2A 00 10 0E
 25037)     47247.5  Rx         00C9  8  80 2C E1 00 2A 00 10 0E
 25062)     47260.2  Rx         00C9  8  80 2C D8 07 2A 00 10 0E
 25101)     47272.7  Rx         00C9  8  80 2C FD 0A 2A 00 10 0E
 25132)     47285.0  Rx         00C9  8  80 2C F7 0D 2A 00 10 0E
 25170)     47297.8  Rx         00C9  8  80 2D 0D 00 2A 00 10 0E
 25197)     47310.1  Rx         00C9  8  80 2D 1E 07 2A 00 10 0E
 25237)     47323.3  Rx         00C9  8  80 2D 1F 0A 2A 00 10 0E
 25269)     47335.3  Rx         00C9  8  80 2D 3C 0D 2A 00 10 0E
 25311)     47347.6  Rx         00C9  8  80 2D 49 00 2A 00 10 0F
 25336)     47360.6  Rx         00C9  8  80 2D 40 07 2A 00 10 0F
 25375)     47372.7  Rx         00C9  8  80 2D 57 0A 2A 00 10 0F
 25406)     47385.1  Rx         00C9  8  80 2D 53 0D 2A 00 10 0F
 25443)     47397.5  Rx         00C9  8  80 2D 6F 00 2A 00 10 0F
 25474)     47410.0  Rx         00C9  8  80 2D 66 07 2A 00 10 0F
 25518)     47423.0  Rx         00C9  8  80 2D 6D 0A 29 00 10 0F
 25553)     47435.8  Rx         00C9  8  80 2D 7A 0D 28 00 10 0F
 25606)     47447.8  Rx         00C9  8  80 2D 77 00 27 00 10 0F
 25634)     47460.2  Rx         00C9  8  80 2D 97 07 27 00 10 0F
 25676)     47472.8  Rx         00C9  8  80 2D 97 0A 26 00 10 0F
 25708)     47485.1  Rx         00C9  8  80 2D A1 0D 26 00 10 0F
 25748)     47498.0  Rx         00C9  8  80 2D B4 00 26 00 10 0F
 25775)     47510.0  Rx         00C9  8  80 2D A5 07 26 00 10 0F
 25813)     47522.9  Rx         00C9  8  80 2D B5 0A 25 00 10 0F
 25850)     47536.4  Rx         00C9  8  80 2D DC 0D 25 00 10 0F
 25888)     47547.6  Rx         00C9  8  80 2D DC 00 25 00 10 0F
 25913)     47560.2  Rx         00C9  8  80 2D FB 07 25 00 10 0F
 25954)     47573.2  Rx         00C9  8  80 2D F6 0A 25 00 10 0F
 25983)     47585.1  Rx         00C9  8  80 2E 14 0D 25 00 10 0F
 26021)     47597.5  Rx         00C9  8  80 2E 2B 00 25 00 10 0F
 26048)     47610.6  Rx         00C9  8  80 2E 2B 07 25 00 10 0F
 26086)     47622.9  Rx         00C9  8  80 2E 4C 0A 25 00 10 0F
 26122)     47635.4  Rx         00C9  8  80 2E 47 0D 25 00 10 0F
 26163)     47647.6  Rx         00C9  8  80 2E 54 00 25 00 10 10
 26190)     47660.6  Rx         00C9  8  80 2E 66 07 25 00 10 10
 26234)     47673.0  Rx         00C9  8  80 2E 56 0A 25 00 10 10
 26264)     47685.1  Rx         00C9  8  80 2E 5A 0D 25 00 10 10
 26302)     47698.2  Rx         00C9  8  80 2E 74 00 24 00 10 10
 26330)     47710.1  Rx         00C9  8  80 2E 65 07 24 00 10 10
 26368)     47723.2  Rx         00C9  8  80 2E 79 0A 24 00 10 10
 26402)     47735.6  Rx         00C9  8  80 2E 86 0D 24 00 10 10
 26444)     47748.1  Rx         00C9  8  80 2E 76 00 24 00 10 10
 26469)     47760.2  Rx         00C9  8  80 2E 78 07 24 00 10 10
 26510)     47773.2  Rx         00C9  8  80 2E 6F 0A 24 00 10 10
 26538)     47785.3  Rx         00C9  8  80 2E 7C 0D 24 00 10 10
 26576)     47797.6  Rx         00C9  8  80 2E 73 00 24 00 10 10
 26603)     47810.1  Rx         00C9  8  80 2E 79 07 24 00 10 10
 26642)     47823.2  Rx         00C9  8  80 2E 94 0A 24 00 10 10
 26676)     47835.7  Rx         00C9  8  80 2E 79 0D 24 00 10 10
 26718)     47847.7  Rx         00C9  8  80 2E 80 00 24 00 10 10
 26743)     47860.2  Rx         00C9  8  80 2E 85 07 24 00 10 10
 26785)     47873.4  Rx         00C9  8  80 2E 74 0A 24 00 10 10
 26813)     47885.1  Rx         00C9  8  80 2E 90 0D 24 00 10 10
 26851)     47897.7  Rx         00C9  8  80 2E A9 00 24 00 10 10
 26881)     47910.2  Rx         00C9  8  80 2E 7F 07 24 00 10 10
 26928)     47923.8  Rx         00C9  8  80 2E 8E 0A 24 00 10 10
 26958)     47935.2  Rx         00C9  8  80 2E 86 0D 24 00 10 10
 27005)     47947.7  Rx         00C9  8  80 2E 82 00 24 00 10 0F
 27030)     47960.2  Rx         00C9  8  80 2E AC 07 24 00 10 0F
 27072)     47973.4  Rx         00C9  8  80 2E AB 0A 24 00 10 0F
 27100)     47985.1  Rx         00C9  8  80 2E CC 0D 24 00 10 0F
 27138)     47997.6  Rx         00C9  8  80 2E D9 00 23 00 10 0F
 27166)     48010.2  Rx         00C9  8  80 2E D2 07 23 00 10 0F
 27205)     48023.3  Rx         00C9  8  80 2E E9 0A 23 00 10 0F
 27238)     48035.5  Rx         00C9  8  80 2E DE 0D 23 00 10 0F
 27279)     48047.7  Rx         00C9  8  80 2E E1 00 23 00 10 0F
 27304)     48060.3  Rx         00C9  8  80 2E EE 07 23 00 10 0F
 27346)     48073.5  Rx         00C9  8  80 2E ED 0A 23 00 10 0F
 27373)     48085.2  Rx         00C9  8  80 2F 10 0D 23 00 10 0F
 27411)     48097.6  Rx         00C9  8  80 2F 31 00 23 00 10 0F
 27438)     48110.0  Rx         00C9  8  80 2F 1A 07 23 00 10 0F
 27480)     48123.8  Rx         00C9  8  80 2F 27 0A 23 00 10 0F
 27511)     48135.4  Rx         00C9  8  80 2F 1A 0D 23 00 10 0F
 27551)     48147.7  Rx         00C9  8  80 2F 0F 00 23 00 10 0F
 27578)     48160.1  Rx         00C9  8  80 2F 3B 07 23 00 10 0F
 27626)     48173.9  Rx         00C9  8  80 2F 3F 0A 23 00 10 0F
 27652)     48185.1  Rx         00C9  8  80 2F 52 0D 23 00 10 0F
 27691)     48197.7  Rx         00C9  8  80 2F 52 00 23 00 10 0F
 27718)     48210.2  Rx         00C9  8  80 2F 5D 07 23 00 10 0F
 27756)     48223.0  Rx         00C9  8  80 2F 76 0A 23 00 10 0F
 27790)     48235.7  Rx         00C9  8  80 2F 6D 0D 23 00 10 0F
 27832)     48247.6  Rx         00C9  8  80 2F 82 00 23 00 10 0F
 27857)     48260.2  Rx         00C9  8  80 2F 86 07 23 00 10 0F
 27898)     48273.3  Rx         00C9  8  80 2F 71 0A 22 00 10 0F
 27927)     48285.3  Rx         00C9  8  80 2F 6F 0D 22 00 10 0F
 27964)     48298.2  Rx         00C9  8  80 2F 82 00 22 00 10 0F
 27992)     48310.4  Rx         00C9  8  80 2F 76 07 22 00 10 0F
 28030)     48323.2  Rx         00C9  8  80 2F 8C 0A 22 00 10 0F
 28064)     48335.5  Rx         00C9  8  80 2F 79 0D 22 00 10 0F
 28106)     48347.6  Rx         00C9  8  80 2F 6F 00 22 00 10 0F
 28131)     48360.7  Rx         00C9  8  80 2F 75 07 22 00 10 0F
 28170)     48372.8  Rx         00C9  8  80 2F 64 0A 22 00 10 0F
 28200)     48385.2  Rx         00C9  8  80 2F 77 0D 22 00 10 0F
 28238)     48397.4  Rx         00C9  8  80 2F 73 00 22 00 10 0F
 28270)     48410.5  Rx         00C9  8  80 2F 66 07 22 00 10 0F
 28314)     48423.4  Rx         00C9  8  80 2F 6E 0A 22 00 10 0F
 28349)     48435.8  Rx         00C9  8  80 2F 64 0D 22 00 10 0F
 28402)     48447.7  Rx         00C9  8  80 2F 61 00 22 00 10 0F
 28430)     48460.5  Rx         00C9  8  80 2F 75 07 22 00 10 0F
 28473)     48473.2  Rx         00C9  8  80 2F 71 0A 22 00 10 0F
 28504)     48485.7  Rx         00C9  8  80 2F 6F 0D 22 00 10 0F
 28544)     48497.6  Rx         00C9  8  80 2F 75 00 22 00 10 0F
 28572)     48510.5  Rx         00C9  8  80 2F 68 07 22 00 10 0F
 28610)     48523.0  Rx         00C9  8  80 2F 67 0A 22 00 10 0F
 28645)     48535.8  Rx         00C9  8  80 2F 84 0D 22 00 10 0F
 28686)     48548.1  Rx         00C9  8  80 2F 75 00 22 00 10 0F
 28711)     48560.3  Rx         00C9  8  80 2F 91 07 22 00 10 0F
 28751)     48573.1  Rx         00C9  8  80 2F 86 0A 21 00 10 0F
 28781)     48585.3  Rx         00C9  8  80 2F 8A 0D 21 00 10 0F
 28818)     48597.8  Rx         00C9  8  80 2F 9F 00 21 00 10 0F
 28846)     48610.3  Rx         00C9  8  80 2F 9B 07 21 00 10 0F
 28883)     48623.0  Rx         00C9  8  80 2F AC 0A 21 00 10 0F
 28920)     48635.5  Rx         00C9  8  80 2F B8 0D 21 00 10 0F
 28961)     48647.9  Rx         00C9  8  80 2F B5 00 20 00 10 0E
 28987)     48660.4  Rx         00C9  8  80 2F C3 07 1F 00 10 0E
 29034)     48673.5  Rx         00C9  8  80 2F D3 0A 1E 00 10 0E
 29061)     48685.8  Rx         00C9  8  80 2F D2 0D 1D 00 10 0E
 29099)     48697.5  Rx         00C9  8  80 2F E6 00 1C 00 10 0E
 29127)     48710.3  Rx         00C9  8  80 2F E4 07 1C 00 10 0E
 29164)     48723.1  Rx         00C9  8  80 2F F0 0A 1C 00 10 0E
 29200)     48736.1  Rx         00C9  8  80 30 00 0D 1C 00 10 0E
 29241)     48747.9  Rx         00C9  8  80 2F EE 00 1C 00 10 0E
 29267)     48760.5  Rx         00C9  8  80 2F F2 07 1C 00 10 0E
 29305)     48772.9  Rx         00C9  8  80 2F FF 0A 1C 00 10 0E
 29336)     48785.5  Rx         00C9  8  80 2F F0 0D 1C 00 10 0E
 29374)     48797.8  Rx         00C9  8  80 2F E7 00 1B 00 10 0E
 29401)     48810.3  Rx         00C9  8  80 2F FA 07 1B 00 10 0E
 29443)     48823.8  Rx         00C9  8  80 2F DD 0A 1A 00 10 0E
 29473)     48835.8  Rx         00C9  8  80 2F E8 0D 19 00 10 0E
 29516)     48847.9  Rx         00C9  8  80 2F D7 00 19 00 10 0E
 29541)     48860.1  Rx         00C9  8  80 2F CB 07 19 00 10 0E
 29583)     48873.6  Rx         00C9  8  80 2F D2 0A 19 00 10 0E
 29611)     48885.5  Rx         00C9  8  80 2F C2 0D 19 00 10 0E
 29648)     48898.0  Rx         00C9  8  80 2F AE 00 19 00 10 0E
 29678)     48910.6  Rx         00C9  8  80 2F B0 07 19 00 10 0E
 29721)     48923.3  Rx         00C9  8  80 2F 9D 0A 18 00 10 0E
 29756)     48935.5  Rx         00C9  8  80 2F A9 0D 18 00 10 0E
 29803)     48947.8  Rx         00C9  8  80 2F AA 00 18 00 10 0D
 29828)     48960.8  Rx         00C9  8  80 2F 98 07 18 00 10 0D
 29868)     48973.2  Rx         00C9  8  80 2F AB 0A 17 00 10 0D
 29897)     48985.3  Rx         00C9  8  80 2F 9E 0D 17 00 10 0D
 29935)     48997.5  Rx         00C9  8  80 2F 9F 00 17 00 10 0D
 29963)     49010.9  Rx         00C9  8  80 2F A4 07 17 00 10 0D
 30002)     49023.4  Rx         00C9  8  80 2F A0 0A 17 00 10 0D
 30036)     49036.0  Rx         00C9  8  80 2F 9A 0D 17 00 10 0D
 30076)     49047.8  Rx         00C9  8  80 2F 9D 00 17 00 10 0D
 30101)     49060.6  Rx         00C9  8  80 2F 90 07 17 00 10 0D
 30140)     49073.0  Rx         00C9  8  80 2F 8E 0A 17 00 10 0D
 30171)     49085.5  Rx         00C9  8  80 2F A9 0D 17 00 10 0D
 30209)     49098.1  Rx         00C9  8  80 2F 8D 00 16 00 10 0D
 30236)     49110.4  Rx         00C9  8  80 2F A6 07 16 00 10 0D
 30274)     49123.2  Rx         00C9  8  80 2F 9C 0A 15 00 10 0D
 30308)     49135.5  Rx         00C9  8  80 2F 9E 0D 15 00 10 0D
 30349)     49148.0  Rx         00C9  8  80 2F B3 00 15 00 10 0C
 30370)     49160.5  Rx         00C9  8  80 2F 99 07 14 00 10 0C
 30417)     49173.7  Rx         00C9  8  80 2F 95 0A 13 00 10 0C
 30445)     49185.4  Rx         00C9  8  80 2F 8F 0D 13 00 10 0C
 30483)     49198.5  Rx         00C9  8  80 2F 7D 00 12 00 10 0C
 30510)     49210.4  Rx         00C9  8  80 2F 82 07 11 00 10 0C
 30552)     49224.0  Rx         00C9  8  80 2F 8D 0A 11 00 10 0C
 30583)     49236.0  Rx         00C9  8  80 2F 72 0D 11 00 10 0C
 30625)     49248.0  Rx         00C9  8  80 2F 83 00 11 00 10 0B
 30650)     49260.4  Rx         00C9  8  80 2F 9D 07 11 00 10 0B
 30689)     49273.0  Rx         00C9  8  80 2F 87 0A 11 00 10 0B
 30719)     49285.7  Rx         00C9  8  80 2F 9C 0D 11 00 10 0B
 30757)     49298.0  Rx         00C9  8  80 2F 80 00 10 00 10 0B
 30784)     49310.3  Rx         00C9  8  80 2F 90 07 10 00 10 0B
 30822)     49323.2  Rx         00C9  8  80 2F 94 0A 10 00 10 0B
 30857)     49336.3  Rx         00C9  8  80 2F 84 0D 10 00 10 0B
 30898)     49348.1  Rx         00C9  8  80 2F 9A 00 10 00 10 0B
 30924)     49361.0  Rx         00C9  8  80 2F 9B 07 10 00 10 0B
 30963)     49373.3  Rx         00C9  8  80 2F 8A 0A 10 00 10 0B
 30993)     49386.0  Rx         00C9  8  80 2F 9F 0D 10 00 10 0B
 31031)     49397.9  Rx         00C9  8  80 2F 9C 00 10 00 10 0B
 31062)     49410.5  Rx         00C9  8  80 2F 98 07 10 00 10 0B
 31108)     49423.9  Rx         00C9  8  80 2F AA 0A 10 00 10 0B
 31140)     49435.6  Rx         00C9  8  80 2F 96 0D 10 00 10 0B
 31192)     49448.0  Rx         00C9  8  80 2F 9F 00 10 00 10 0A
 31221)     49460.5  Rx         00C9  8  80 2F 9A 07 10 00 10 0A
 31263)     49473.4  Rx         00C9  8  80 2F 85 0A 10 00 10 0A
 31293)     49485.7  Rx         00C9  8  80 2F 8F 0D 10 00 10 0A
 31332)     49497.9  Rx         00C9  8  80 2F 85 00 10 00 10 0A
 31361)     49510.5  Rx         00C9  8  80 2F 7B 07 10 00 10 0A
 31402)     49523.9  Rx         00C9  8  80 2F 7E 0A 10 00 10 0A
 31434)     49535.9  Rx         00C9  8  80 2F 80 0D 10 00 10 0A
 31476)     49548.5  Rx         00C9  8  80 2F 68 00 10 00 10 0A
 31501)     49560.6  Rx         00C9  8  80 2F 6B 07 10 00 10 0A
 31542)     49573.7  Rx         00C9  8  80 2F 57 0A 10 00 10 0A
 31570)     49585.5  Rx         00C9  8  80 2F 58 0D 10 00 10 0A
 31608)     49598.4  Rx         00C9  8  80 2F 57 00 10 00 10 0A
 31635)     49610.9  Rx         00C9  8  80 2F 47 07 10 00 10 0A
 31672)     49623.3  Rx         00C9  8  80 2F 5F 0A 10 00 10 0A
 31710)     49635.8  Rx         00C9  8  80 2F 4F 0D 0F 00 10 0A
 31749)     49648.0  Rx         00C9  8  80 2F 4A 00 0F 00 10 09
 31777)     49660.8  Rx         00C9  8  80 2F 59 07 0F 00 10 09
 31820)     49673.4  Rx         00C9  8  80 2F 43 0A 0E 00 10 09
 31850)     49685.6  Rx         00C9  8  80 2F 56 0D 0E 00 10 09
 31889)     49698.0  Rx         00C9  8  80 2F 62 00 0E 00 10 09
 31917)     49710.7  Rx         00C9  8  80 2F 5C 07 0D 00 10 09
 31956)     49723.7  Rx         00C9  8  80 2F 71 0A 0D 00 10 09
 31989)     49736.3  Rx         00C9  8  80 2F 70 0D 0D 00 10 09
 32030)     49748.0  Rx         00C9  8  80 2F 77 00 0D 00 10 09
 32056)     49761.1  Rx         00C9  8  80 2F 9C 07 0D 00 10 09
 32097)     49773.8  Rx         00C9  8  80 2F C9 0A 0D 00 10 09
 32126)     49786.1  Rx         00C9  8  80 2F E6 0D 0C 00 10 09
 32162)     49798.4  Rx         00C9  8  80 30 2C 00 0C 00 10 09
 32190)     49810.7  Rx         00C9  8  80 30 60 07 0C 00 10 09
 32228)     49823.6  Rx         00C9  8  80 30 DB 0A 0C 00 10 09
 32262)     49835.9  Rx         00C9  8  80 31 68 0D 0C 00 10 09
 32303)     49848.3  Rx         00C9  8  80 32 0F 00 0C 00 10 F5
 32330)     49860.7  Rx         00C9  8  80 32 F6 07 0C 00 10 F5
 32371)     49873.6  Rx         00C9  8  80 33 D0 0A 0C 00 10 F5
 32399)     49885.8  Rx         00C9  8  80 34 93 0D 0C 00 10 F5
 32437)     49898.3  Rx         00C9  8  80 35 78 00 0B 00 10 F5
 32467)     49911.3  Rx         00C9  8  80 36 8B 07 0B 00 10 F5
 32514)     49924.4  Rx         00C9  8  80 37 6E 0A 0B 00 10 F5
 32545)     49936.4  Rx         00C9  8  80 38 59 0D 0B 00 10 F5
 32591)     49948.7  Rx         00C9  8  80 39 52 00 0B 00 10 FF
 32616)     49961.0  Rx         00C9  8  80 3A 68 07 0B 00 10 FF
 32656)     49973.5  Rx         00C9  8  80 3B 70 0A 0B 00 10 FF
 32686)     49985.9  Rx         00C9  8  80 3C 9E 0D 0B 00 10 FF
 32725)     49998.5  Rx         00C9  8  80 3D 7E 00 0B 00 10 FF
 32752)     50011.3  Rx         00C9  8  80 3E 9E 07 0A 00 10 FF
 32791)     50023.6  Rx         00C9  8  80 3F AB 0A 0A 00 10 FF
 32823)     50036.5  Rx         00C9  8  80 40 EB 0D 0A 00 10 FF
 32864)     50048.3  Rx         00C9  8  80 41 E1 00 09 00 10 07
 32890)     50061.3  Rx         00C9  8  80 43 0B 07 09 00 10 07
 32932)     50074.2  Rx         00C9  8  80 43 E6 0A 09 00 10 07
 32959)     50086.0  Rx         00C9  8  80 44 98 0D 09 00 10 07
 32998)     50100.9  Rx         00C9  8  80 44 46 00 09 00 10 07
 33023)     50110.9  Rx         00C9  8  80 44 5B 07 09 00 10 07
 33064)     50124.1  Rx         00C9  8  80 44 96 0A 09 00 10 07
 33097)     50137.1  Rx         00C9  8  80 44 72 0D 09 00 10 07
 33138)     50148.4  Rx         00C9  8  80 44 95 00 09 00 10 24
 33164)     50161.3  Rx         00C9  8  80 44 ED 07 09 00 10 24
 33210)     50173.8  Rx         00C9  8  80 45 3C 0A 09 00 10 24
 33237)     50185.8  Rx         00C9  8  80 45 51 0D 09 00 10 24
 33277)     50198.5  Rx         00C9  8  80 45 78 00 09 00 10 24
 33304)     50211.1  Rx         00C9  8  80 45 91 07 09 00 10 24
 33344)     50223.8  Rx         00C9  8  80 45 BA 0A 09 00 10 24
 33377)     50236.3  Rx         00C9  8  80 46 0B 0D 09 00 10 24
 33418)     50248.9  Rx         00C9  8  80 46 19 00 09 00 10 2E
 33443)     50260.9  Rx         00C9  8  80 46 3C 07 09 00 10 2E
 33486)     50274.2  Rx         00C9  8  80 46 71 0A 09 00 10 2E
 33513)     50285.8  Rx         00C9  8  80 46 91 0D 09 00 10 2E
 33551)     50298.5  Rx         00C9  8  80 46 C0 00 09 00 10 2E
 33577)     50311.1  Rx         00C9  8  80 46 DE 07 09 00 10 2E
 33618)     50324.1  Rx         00C9  8  80 46 F9 0A 09 00 10 2E
 33650)     50336.5  Rx         00C9  8  80 47 0E 0D 08 00 10 2E
 33691)     50348.4  Rx         00C9  8  80 47 24 00 07 00 10 24
 33717)     50361.4  Rx         00C9  8  80 47 2B 07 05 00 10 24
 33761)     50374.4  Rx         00C9  8  80 47 29 0A 02 00 10 24
 33787)     50386.4  Rx         00C9  8  80 47 25 0D 00 00 10 24
 33825)     50398.4  Rx         00C9  8  80 47 12 00 00 00 10 24
 33856)     50410.9  Rx         00C9  8  80 47 09 07 00 00 10 24
 33903)     50424.5  Rx         00C9  8  80 46 EE 0A 00 00 10 24
 33936)     50437.6  Rx         00C9  8  80 46 CD 0D 00 00 10 24
 33987)     50448.9  Rx         00C9  8  80 46 AB 00 00 00 10 1D
 34013)     50460.9  Rx         00C9  8  80 46 8A 07 00 00 10 1D
 34059)     50474.4  Rx         00C9  8  80 46 65 0A 00 00 10 1D
 34089)     50485.9  Rx         00C9  8  80 46 49 0D 00 00 10 1D
 34129)     50498.7  Rx         00C9  8  80 46 26 00 00 00 10 1D
 34157)     50510.9  Rx         00C9  8  80 46 0C 07 00 00 10 1D
 34199)     50524.3  Rx         00C9  8  80 45 EB 0A 00 00 10 1D
 34232)     50537.0  Rx         00C9  8  80 45 C6 0D 00 00 10 1D
 34271)     50548.3  Rx         00C9  8  80 45 8C 00 00 00 10 18
 34296)     50560.9  Rx         00C9  8  80 45 89 07 00 00 10 18
 34340)     50574.4  Rx         00C9  8  80 45 54 0A 00 00 10 18
 34366)     50586.4  Rx         00C9  8  80 45 1B 0D 00 00 10 18
 34404)     50598.3  Rx         00C9  8  80 44 D6 00 00 00 10 18
 34431)     50611.1  Rx         00C9  8  80 44 A4 07 00 00 10 18
 34471)     50624.0  Rx         00C9  8  80 44 66 0A 00 00 10 18
 34505)     50636.1  Rx         00C9  8  80 44 30 0D 00 00 10 18
 34546)     50648.9  Rx         00C9  8  80 43 F8 00 00 00 10 13
 34573)     50660.9  Rx         00C9  8  80 43 D0 07 00 00 10 13
 34621)     50674.4  Rx         00C9  8  80 43 AF 0A 00 00 10 13
 34647)     50686.1  Rx         00C9  8  80 43 9C 0D 00 00 10 13
 34685)     50698.4  Rx         00C9  8  80 43 7C 00 00 00 10 13
 34713)     50711.4  Rx         00C9  8  80 43 52 07 00 00 10 13
 34750)     50723.6  Rx         00C9  8  80 43 32 0A 00 00 10 13
 34787)     50737.2  Rx         00C9  8  80 43 1A 0D 00 00 10 13
 34827)     50748.6  Rx         00C9  8  80 43 02 00 00 00 10 11
 34852)     50761.0  Rx         00C9  8  80 42 F5 07 00 00 10 11
 34896)     50774.5  Rx         00C9  8  80 42 E8 0A 00 00 10 11
 34921)     50785.9  Rx         00C9  8  80 42 E5 0D 00 00 10 11
 34959)     50798.6  Rx         00C9  8  80 42 F6 00 00 00 10 11
 34986)     50810.8  Rx         00C9  8  80 42 E1 07 00 00 10 11
 35028)     50824.6  Rx         00C9  8  80 43 04 0A 00 00 10 11
 35059)     50836.6  Rx         00C9  8  80 43 0E 0D 00 00 10 11
 35099)     50848.5  Rx         00C9  8  80 43 16 00 00 00 10 0F
 35126)     50861.0  Rx         00C9  8  80 43 13 07 00 00 10 0F
 35166)     50873.7  Rx         00C9  8  80 43 0D 0A 00 00 10 0F
 35196)     50886.5  Rx         00C9  8  80 43 15 0D 00 00 10 0F
 35234)     50898.5  Rx         00C9  8  80 43 1E 00 00 00 10 0F
 35264)     50911.2  Rx         00C9  8  80 43 34 07 00 00 10 0F
 35308)     50924.0  Rx         00C9  8  80 43 44 0A 00 00 10 0F
 35341)     50936.2  Rx         00C9  8  80 43 4E 0D 00 00 10 0F
 35388)     50949.0  Rx         00C9  8  80 43 4C 00 00 00 10 0E
 35413)     50961.0  Rx         00C9  8  80 43 59 07 00 00 10 0E
 35457)     50974.6  Rx         00C9  8  80 43 5E 0A 00 00 10 0E
 35483)     50986.3  Rx         00C9  8  80 43 47 0D 00 00 10 0E
 35521)     50998.5  Rx         00C9  8  80 43 31 00 00 00 10 0E
 35549)     51011.7  Rx         00C9  8  80 43 26 07 00 00 10 0E
 35587)     51023.9  Rx         00C9  8  80 43 21 0A 00 00 10 0E
 35621)     51036.8  Rx         00C9  8  80 43 26 0D 00 00 10 0E
 35662)     51048.6  Rx         00C9  8  80 43 2B 00 00 00 10 0C
 35687)     51061.3  Rx         00C9  8  80 43 26 07 00 00 10 0C
 35732)     51075.2  Rx         00C9  8  80 43 06 0A 00 00 10 0C
 35756)     51086.0  Rx         00C9  8  80 42 E6 0D 00 00 10 0C
 35794)     51098.6  Rx         00C9  8  80 42 C6 00 00 00 10 0C
 35821)     51111.0  Rx         00C9  8  80 42 C2 07 00 00 10 0C
 35863)     51124.5  Rx         00C9  8  80 42 9E 0A 00 00 10 0C
 35894)     51136.7  Rx         00C9  8  80 42 80 0D 00 00 10 0C
 35934)     51148.8  Rx         00C9  8  80 42 57 00 00 00 10 0B
 35961)     51161.2  Rx         00C9  8  80 42 3B 07 00 00 10 0B
 36009)     51174.6  Rx         00C9  8  80 42 1B 0A 00 00 10 0B
 36035)     51186.6  Rx         00C9  8  80 41 FB 0D 00 00 10 0B
 36074)     51198.7  Rx         00C9  8  80 41 DC 00 00 00 10 0B
 36101)     51211.3  Rx         00C9  8  80 41 AE 07 01 00 10 0B
 36140)     51224.2  Rx         00C9  8  80 41 9E 0A 02 00 10 0B
 36175)     51237.9  Rx         00C9  8  80 41 69 0D 03 00 10 0B
 36215)     51248.7  Rx         00C9  8  80 41 6A 00 03 00 10 0A
 36240)     51261.4  Rx         00C9  8  80 41 76 07 03 00 10 0A
 36282)     51274.2  Rx         00C9  8  80 41 58 0A 03 00 10 0A
 36310)     51286.6  Rx         00C9  8  80 41 46 0D 03 00 10 0A
 36347)     51299.2  Rx         00C9  8  80 41 5A 00 03 00 10 0A
 36374)     51311.3  Rx         00C9  8  80 41 4B 07 04 00 10 0A
 36417)     51324.8  Rx         00C9  8  80 41 44 0A 04 00 10 0A
 36449)     51337.5  Rx         00C9  8  80 41 4B 0D 04 00 10 0A
 36488)     51349.0  Rx         00C9  8  80 41 59 00 04 00 10 09
 36514)     51361.2  Rx         00C9  8  80 41 52 07 04 00 10 09
 36558)     51374.7  Rx         00C9  8  80 41 71 0A 04 00 10 09
 36583)     51386.1  Rx         00C9  8  80 41 6E 0D 04 00 10 09
 36621)     51398.9  Rx         00C9  8  80 41 6B 00 04 00 10 09
 36652)     51411.2  Rx         00C9  8  80 41 83 07 04 00 10 09
 36699)     51424.8  Rx         00C9  8  80 41 5C 0A 04 00 10 09
 36731)     51436.4  Rx         00C9  8  80 41 61 0D 04 00 10 09
 36783)     51449.2  Rx         00C9  8  80 41 69 00 04 00 10 08
 36811)     51461.2  Rx         00C9  8  80 41 5E 07 04 00 10 08
 36857)     51474.7  Rx         00C9  8  80 41 67 0A 04 00 10 08
 36885)     51486.2  Rx         00C9  8  80 41 62 0D 04 00 10 08
 36925)     51498.7  Rx         00C9  8  80 41 4D 00 04 00 10 08
 36953)     51511.3  Rx         00C9  8  80 41 40 07 03 00 10 08
 36996)     51524.9  Rx         00C9  8  80 41 22 0A 03 00 10 08
 37026)     51536.6  Rx         00C9  8  80 41 21 0D 03 00 10 08
 37067)     51548.8  Rx         00C9  8  80 41 20 00 03 00 10 07
 37092)     51561.3  Rx         00C9  8  80 41 19 07 03 00 10 07
 37136)     51575.3  Rx         00C9  8  80 41 08 0A 03 00 10 07
 37155)     51586.3  Rx         00C9  8  80 40 F5 0D 03 00 10 07
 37193)     51598.8  Rx         00C9  8  80 40 D0 00 03 00 10 07
 37221)     51611.6  Rx         00C9  8  80 40 B1 07 03 00 10 07
 37262)     51624.7  Rx         00C9  8  80 40 94 0A 03 00 10 07
 37295)     51636.9  Rx         00C9  8  80 40 91 0D 03 00 10 07
 37336)     51648.7  Rx         00C9  8  80 40 82 00 03 00 10 07
 37362)     51661.8  Rx         00C9  8  80 40 72 07 03 00 10 07
 37407)     51673.9  Rx         00C9  8  80 40 64 0A 03 00 10 07
 37436)     51686.3  Rx         00C9  8  80 40 4C 0D 03 00 10 07
 37475)     51698.8  Rx         00C9  8  80 40 34 00 03 00 10 07
 37502)     51711.5  Rx         00C9  8  80 40 1E 07 03 00 10 07
 37543)     51724.5  Rx         00C9  8  80 40 10 0A 03 00 10 07
 37575)     51736.4  Rx         00C9  8  80 3F F9 0D 03 00 10 07
 37616)     51749.1  Rx         00C9  8  80 40 1A 00 03 00 10 07
 37641)     51761.3  Rx         00C9  8  80 40 0D 07 03 00 10 07
 37683)     51774.4  Rx         00C9  8  80 3F F1 0A 04 00 10 07
 37711)     51786.8  Rx         00C9  8  80 3F DD 0D 05 00 10 07
 37749)     51798.7  Rx         00C9  8  80 3F E0 00 06 00 10 07
 37776)     51811.8  Rx         00C9  8  80 3F EA 07 07 00 10 07
 37815)     51824.1  Rx         00C9  8  80 40 00 0A 08 00 10 07
 37850)     51837.9  Rx         00C9  8  80 40 18 0D 09 00 10 07
 37889)     51849.0  Rx         00C9  8  80 40 22 00 0A 00 10 06
 37916)     51861.4  Rx         00C9  8  80 40 1D 07 0B 00 10 06
 37960)     51874.8  Rx         00C9  8  80 40 1C 0A 0C 00 10 06
 37986)     51886.2  Rx         00C9  8  80 40 23 0D 0D 00 10 06
 38023)     51898.8  Rx         00C9  8  80 40 3D 00 0D 00 10 06
 38053)     51911.2  Rx         00C9  8  80 40 57 07 0D 00 10 06
 38100)     51924.9  Rx         00C9  8  80 40 64 0A 0D 00 10 06
 38130)     51937.0  Rx         00C9  8  80 40 6B 0D 0E 00 10 06
 38178)     51948.9  Rx         00C9  8  80 40 6B 00 0E 00 10 05
 38202)     51961.7  Rx         00C9  8  80 40 6C 07 0E 00 10 05
 38243)     51974.0  Rx         00C9  8  80 40 71 0A 0E 00 10 05
 38272)     51986.8  Rx         00C9  8  80 40 7C 0D 0F 00 10 05
 38311)     51998.9  Rx         00C9  8  80 40 8F 00 0F 00 10 05
 38339)     52012.3  Rx         00C9  8  80 40 99 07 10 00 10 05
 38378)     52024.4  Rx         00C9  8  80 40 97 0A 10 00 10 05
 38411)     52037.0  Rx         00C9  8  80 40 88 0D 10 00 10 05
 38451)     52049.1  Rx         00C9  8  80 40 7F 00 11 00 10 05
 38476)     52061.4  Rx         00C9  8  80 40 7D 07 11 00 10 05
 38519)     52075.0  Rx         00C9  8  80 40 83 0A 11 00 10 05
 38546)     52086.3  Rx         00C9  8  80 40 7E 0D 11 00 10 05
 38584)     52099.2  Rx         00C9  8  80 40 8E 00 11 00 10 05
 38611)     52111.3  Rx         00C9  8  80 40 8C 07 12 00 10 05
 38650)     52124.4  Rx         00C9  8  80 40 7C 0A 12 00 10 05
 38683)     52136.9  Rx         00C9  8  80 40 6B 0D 13 00 10 05
 38724)     52149.0  Rx         00C9  8  80 40 63 00 13 00 10 05
 38751)     52161.6  Rx         00C9  8  80 40 6F 07 13 00 10 05
 38795)     52174.0  Rx         00C9  8  80 40 6D 0A 14 00 10 05
 38825)     52186.9  Rx         00C9  8  80 40 7D 0D 14 00 10 05
 38863)     52198.9  Rx         00C9  8  80 40 79 00 14 00 10 05
 38890)     52211.3  Rx         00C9  8  80 40 6B 07 14 00 10 05
 38929)     52224.2  Rx         00C9  8  80 40 5D 0A 14 00 10 05
 38963)     52237.1  Rx         00C9  8  80 40 57 0D 14 00 10 05
 39005)     52249.2  Rx         00C9  8  80 40 60 00 14 00 10 07
 39030)     52261.7  Rx         00C9  8  80 40 45 07 14 00 10 07
 39073)     52274.9  Rx         00C9  8  80 40 77 0A 14 00 10 07
 39099)     52286.4  Rx         00C9  8  80 40 72 0D 14 00 10 07
 39137)     52298.9  Rx         00C9  8  80 40 63 00 14 00 10 07
 39164)     52311.4  Rx         00C9  8  80 40 61 07 14 00 10 07
 39205)     52324.7  Rx         00C9  8  80 40 5B 0A 14 00 10 07
 39237)     52337.1  Rx         00C9  8  80 40 5F 0D 14 00 10 07
 39277)     52349.0  Rx         00C9  8  80 40 6D 00 14 00 10 07
 39303)     52361.7  Rx         00C9  8  80 40 79 07 14 00 10 07
 39343)     52374.1  Rx         00C9  8  80 40 7A 0A 14 00 10 07
 39373)     52387.0  Rx         00C9  8  80 40 70 0D 14 00 10 07
 39412)     52399.0  Rx         00C9  8  80 40 5A 00 14 00 10 07
 39443)     52412.0  Rx         00C9  8  80 40 55 07 14 00 10 07
 39487)     52424.3  Rx         00C9  8  80 40 5D 0A 14 00 10 07
 39521)     52437.0  Rx         00C9  8  80 40 65 0D 14 00 10 07
 39573)     52449.6  Rx         00C9  8  80 40 69 00 14 00 10 07
 39601)     52461.5  Rx         00C9  8  80 40 66 07 14 00 10 07
 39646)     52475.0  Rx         00C9  8  80 40 59 0A 14 00 10 07
 39676)     52486.5  Rx         00C9  8  80 40 45 0D 14 00 10 07
 39716)     52499.7  Rx         00C9  8  80 40 35 00 14 00 10 07
 39744)     52511.4  Rx         00C9  8  80 40 31 07 14 00 10 07
 39785)     52524.5  Rx         00C9  8  80 40 2F 0A 14 00 10 07
 39818)     52537.2  Rx         00C9  8  80 40 29 0D 14 00 10 07
 39859)     52549.0  Rx         00C9  8  80 40 1D 00 14 00 10 08
 39884)     52561.8  Rx         00C9  8  80 40 08 07 14 00 10 08
 39925)     52574.4  Rx         00C9  8  80 3F F0 0A 14 00 10 08
 39953)     52586.9  Rx         00C9  8  80 3F DA 0D 14 00 10 08
 39991)     52599.2  Rx         00C9  8  80 3F D5 00 14 00 10 08
 40018)     52611.5  Rx         00C9  8  80 3F B9 07 14 00 10 08
 40059)     52624.7  Rx         00C9  8  80 3F D4 0A 14 00 10 08
 40093)     52636.7  Rx         00C9  8  80 3F C9 0D 14 00 10 08
 40133)     52649.2  Rx         00C9  8  80 3F B1 00 14 00 10 08
 40160)     52661.7  Rx         00C9  8  80 3F 9D 07 14 00 10 08
 40204)     52674.2  Rx         00C9  8  80 3F 96 0A 14 00 10 08
 40234)     52687.1  Rx         00C9  8  80 3F 9A 0D 14 00 10 08
 40273)     52699.1  Rx         00C9  8  80 3F A2 00 14 00 10 08
 40300)     52712.1  Rx         00C9  8  80 3F A4 07 14 00 10 08
 40343)     52725.2  Rx         00C9  8  80 3F A3 0A 14 00 10 08
 40372)     52737.0  Rx         00C9  8  80 3F BD 0D 14 00 10 08
 40414)     52749.5  Rx         00C9  8  80 3F 89 00 14 00 10 08
 40439)     52761.6  Rx         00C9  8  80 3F 88 07 14 00 10 08
 40481)     52774.6  Rx         00C9  8  80 3F 98 0A 14 00 10 08
 40509)     52787.1  Rx         00C9  8  80 3F A5 0D 14 00 10 08
 40546)     52799.0  Rx         00C9  8  80 3F A1 00 14 00 10 08
 40574)     52811.5  Rx         00C9  8  80 3F 96 07 14 00 10 08
 40613)     52824.6  Rx         00C9  8  80 3F 91 0A 14 00 10 08
 40646)     52837.3  Rx         00C9  8  80 3F 93 0D 14 00 10 08
 40687)     52849.3  Rx         00C9  8  80 3F 9B 00 14 00 10 08
 40714)     52861.6  Rx         00C9  8  80 3F AA 07 14 00 10 08
 40758)     52875.1  Rx         00C9  8  80 3F B2 0A 14 00 10 08
 40783)     52886.6  Rx         00C9  8  80 3F B4 0D 14 00 10 08
 40821)     52899.2  Rx         00C9  8  80 3F A9 00 14 00 10 08
 40851)     52912.2  Rx         00C9  8  80 3F 9E 07 14 00 10 08
 40894)     52924.4  Rx         00C9  8  80 3F A4 0A 14 00 10 08
 40929)     52937.0  Rx         00C9  8  80 3F B7 0D 14 00 10 08
 40975)     52949.2  Rx         00C9  8  80 3F C6 00 14 00 10 08
 41001)     52961.9  Rx         00C9  8  80 3F C6 07 14 00 10 08
 41042)     52974.7  Rx         00C9  8  80 3F BB 0A 14 00 10 08
 41070)     52986.6  Rx         00C9  8  80 3F B4 0D 14 00 10 08
 41109)     52999.8  Rx         00C9  8  80 3F B0 00 14 00 10 08
 41136)     53011.7  Rx         00C9  8  80 3F B8 07 14 00 10 08
 41176)     53024.6  Rx         00C9  8  80 3F 97 0A 14 00 10 08
 41208)     53037.3  Rx         00C9  8  80 3F C8 0D 14 00 10 08
 41248)     53049.1  Rx         00C9  8  80 3F C8 00 14 00 10 08
 41274)     53061.6  Rx         00C9  8  80 3F B6 07 14 00 10 08
 41315)     53074.7  Rx         00C9  8  80 3F A9 0A 14 00 10 08
 41344)     53087.0  Rx         00C9  8  80 3F A4 0D 14 00 10 08
 41381)     53099.5  Rx         00C9  8  80 3F B1 00 14 00 10 08
 41409)     53111.6  Rx         00C9  8  80 3F B3 07 14 00 10 08
 41449)     53125.3  Rx         00C9  8  80 3F AB 0A 14 00 10 08
 41474)     53137.3  Rx         00C9  8  80 3F A4 0D 14 00 10 08
 41516)     53149.2  Rx         00C9  8  80 3F AD 00 14 00 10 08
 41544)     53162.3  Rx         00C9  8  80 3F 85 07 14 00 10 08
 41587)     53174.3  Rx         00C9  8  80 3F 7B 0A 14 00 10 08
 41617)     53186.9  Rx         00C9  8  80 3F 81 0D 14 00 10 08
 41656)     53199.7  Rx         00C9  8  80 3F 8B 00 14 00 10 08
 41683)     53211.7  Rx         00C9  8  80 3F 83 07 14 00 10 08
 41721)     53224.5  Rx         00C9  8  80 3F 6E 0A 14 00 10 08
 41756)     53237.0  Rx         00C9  8  80 3F 5D 0D 14 00 10 08
 41796)     53249.5  Rx         00C9  8  80 3F 56 00 14 00 10 08
 41822)     53262.0  Rx         00C9  8  80 3F 52 07 14 00 10 08
 41862)     53274.6  Rx         00C9  8  80 3F 5F 0A 14 00 10 08
 41894)     53288.0  Rx         00C9  8  80 3F 62 0D 14 00 10 08
 41929)     53299.3  Rx         00C9  8  80 3F 5C 00 14 00 10 08
 41957)     53311.8  Rx         00C9  8  80 3F 69 07 14 00 10 08
 41999)     53325.3  Rx         00C9  8  80 3F 3F 0A 14 00 10 08
 42028)     53336.8  Rx         00C9  8  80 3F 42 0D 14 00 10 08
 42069)     53349.3  Rx         00C9  8  80 3F 52 00 14 00 10 08
 42096)     53362.2  Rx         00C9  8  80 3F 5F 07 14 00 10 08
 42135)     53374.3  Rx         00C9  8  80 3F 59 0A 14 00 10 08
 42165)     53386.8  Rx         00C9  8  80 3F 42 0D 14 00 10 08
 42202)     53399.4  Rx         00C9  8  80 3F 34 00 14 00 10 08
 42233)     53411.7  Rx         00C9  8  80 3F 31 07 14 00 10 08
 42281)     53425.3  Rx         00C9  8  80 3F 3D 0A 14 00 10 08
 42311)     53437.0  Rx         00C9  8  80 3F 46 0D 14 00 10 08
 42364)     53449.7  Rx         00C9  8  80 3F 48 00 14 00 10 08
 42393)     53462.4  Rx         00C9  8  80 3F 46 07 14 00 10 08
 42435)     53474.7  Rx         00C9  8  80 3F 32 0A 14 00 10 08
 42467)     53488.3  Rx         00C9  8  80 3F 29 0D 14 00 10 08
 42504)     53499.4  Rx         00C9  8  80 3F 2C 00 14 00 10 08
 42532)     53511.7  Rx         00C9  8  80 3F 20 07 14 00 10 08
 42575)     53525.6  Rx         00C9  8  80 3F 3D 0A 13 00 10 08
 42606)     53536.8  Rx         00C9  8  80 3F 34 0D 13 00 10 08
 42647)     53549.4  Rx         00C9  8  80 3F 21 00 13 00 10 08
 42673)     53562.3  Rx         00C9  8  80 3F 17 07 13 00 10 08
 42713)     53574.6  Rx         00C9  8  80 3F 1C 0A 13 00 10 08
 42742)     53587.1  Rx         00C9  8  80 3F 22 0D 13 00 10 08
 42780)     53599.6  Rx         00C9  8  80 3F 2E 00 13 00 10 08
 42807)     53611.7  Rx         00C9  8  80 3F 2C 07 12 00 10 08
 42846)     53624.5  Rx         00C9  8  80 3F 19 0A 12 00 10 08
 42881)     53637.4  Rx         00C9  8  80 3F 0B 0D 11 00 10 08
 42922)     53649.3  Rx         00C9  8  80 3F 06 00 10 00 10 08
 42949)     53662.0  Rx         00C9  8  80 3F 10 07 10 00 10 08
 42994)     53674.6  Rx         00C9  8  80 3F 22 0A 0F 00 10 08
 43023)     53687.3  Rx         00C9  8  80 3F 24 0D 0F 00 10 08
 43061)     53699.8  Rx         00C9  8  80 3F 15 00 0F 00 10 08
 43089)     53711.8  Rx         00C9  8  80 3F 03 07 0F 00 10 08
 43131)     53725.4  Rx         00C9  8  80 3E FD 0A 0F 00 10 08
 43161)     53737.5  Rx         00C9  8  80 3E FD 0D 0F 00 10 08
 43203)     53749.3  Rx         00C9  8  80 3F 11 00 0F 00 10 08
 43228)     53762.5  Rx         00C9  8  80 3F 10 07 0F 00 10 08
 43270)     53774.8  Rx         00C9  8  80 3F 0B 0A 0F 00 10 08
 43297)     53786.8  Rx         00C9  8  80 3F 14 0D 0F 00 10 08
 43335)     53799.6  Rx         00C9  8  80 3E E9 00 0F 00 10 08
 43362)     53811.8  Rx         00C9  8  80 3E EE 07 0F 00 10 08
 43403)     53824.9  Rx         00C9  8  80 3E FA 0A 0F 00 10 08
 43435)     53837.5  Rx         00C9  8  80 3F 03 0D 0F 00 10 08
 43475)     53849.3  Rx         00C9  8  80 3E FC 00 0F 00 10 08
 43500)     53861.9  Rx         00C9  8  80 3E EB 07 0F 00 10 08
 43546)     53875.2  Rx         00C9  8  80 3E DF 0A 0F 00 10 08
 43572)     53886.8  Rx         00C9  8  80 3E DC 0D 0F 00 10 08
 43610)     53899.4  Rx         00C9  8  80 3E E9 00 0F 00 10 08
 43640)     53912.3  Rx         00C9  8  80 3E ED 07 0F 00 10 08
 43683)     53924.6  Rx         00C9  8  80 3E EC 0A 0F 00 10 08
 43717)     53937.1  Rx         00C9  8  80 3E E0 0D 0F 00 10 08
 43764)     53949.5  Rx         00C9  8  80 3E D2 00 0F 00 10 08
 43789)     53961.8  Rx         00C9  8  80 3E D1 07 0F 00 10 08
 43830)     53974.7  Rx         00C9  8  80 3E DB 0A 0F 00 10 08
 43859)     53986.8  Rx         00C9  8  80 3E EC 0D 0F 00 10 08
 43897)     53999.3  Rx         00C9  8  80 3E ED 00 0F 00 10 08
 43925)     54012.4  Rx         00C9  8  80 3E E1 07 0F 00 10 08
 43964)     54024.7  Rx         00C9  8  80 3E D0 0A 0F 00 10 08
 43997)     54037.5  Rx         00C9  8  80 3E CE 0D 0F 00 10 08
 44038)     54049.7  Rx         00C9  8  80 3E DD 00 0F 00 10 08
 44062)     54061.8  Rx         00C9  8  80 3E EA 07 0F 00 10 08
 44106)     54075.3  Rx         00C9  8  80 3E F2 0A 0F 00 10 08
 44124)     54087.3  Rx         00C9  8  80 3E EA 0D 0F 00 10 08
 44163)     54099.4  Rx         00C9  8  80 3E DB 00 0E 00 10 08
 44191)     54112.9  Rx         00C9  8  80 3E D4 07 0E 00 10 08
 44233)     54125.4  Rx         00C9  8  80 3E D7 0A 0E 00 10 08
 44263)     54137.4  Rx         00C9  8  80 3E BD 0D 0E 00 10 08
 44303)     54150.1  Rx         00C9  8  80 3E F2 00 0D 00 10 08
 44330)     54161.9  Rx         00C9  8  80 3E E8 07 0D 00 10 08
 44375)     54174.7  Rx         00C9  8  80 3E F4 0A 0D 00 10 08
 44404)     54186.9  Rx         00C9  8  80 3E D2 0D 0D 00 10 08
 44443)     54199.4  Rx         00C9  8  80 3E DC 00 0D 00 10 08
 44470)     54212.1  Rx         00C9  8  80 3E E4 07 0D 00 10 08
 44513)     54225.4  Rx         00C9  8  80 3E E7 0A 0C 00 10 08
 44542)     54237.0  Rx         00C9  8  80 3E E1 0D 0C 00 10 08
 44584)     54249.5  Rx         00C9  8  80 3E CF 00 0B 00 10 08
 44609)     54262.4  Rx         00C9  8  80 3E C7 07 0A 00 10 08
 44650)     54274.7  Rx         00C9  8  80 3E C1 0A 09 00 10 08
 44679)     54287.2  Rx         00C9  8  80 3E C2 0D 08 00 10 08
 44716)     54299.8  Rx         00C9  8  80 3E C8 00 07 00 10 08
 44744)     54311.8  Rx         00C9  8  80 3E BD 07 06 00 10 08
 44784)     54325.0  Rx         00C9  8  80 3E 9A 0A 05 00 10 08
 44817)     54338.0  Rx         00C9  8  80 3E 7B 0D 03 00 10 08
 44857)     54349.4  Rx         00C9  8  80 3E 67 00 01 00 10 09
 44882)     54362.3  Rx         00C9  8  80 3E 5A 07 00 00 10 09
 44927)     54375.3  Rx         00C9  8  80 3E 4B 0A 00 00 10 09
 44952)     54386.8  Rx         00C9  8  80 3E 31 0D 00 00 10 09
 44991)     54399.5  Rx         00C9  8  80 3E 04 00 00 00 10 09
 45022)     54412.6  Rx         00C9  8  80 3D DD 07 00 00 10 09
 45066)     54424.8  Rx         00C9  8  80 3D BC 0A 00 00 10 09
 45101)     54437.4  Rx         00C9  8  80 3D A5 0D 00 00 10 09
 45153)     54450.1  Rx         00C9  8  80 3D 7F 00 00 00 10 08
 45181)     54462.2  Rx         00C9  8  80 3D 49 07 00 00 10 08
 45225)     54474.8  Rx         00C9  8  80 3D 12 0A 00 00 10 08
 45256)     54487.3  Rx         00C9  8  80 3C E6 0D 00 00 10 08
 45296)     54499.4  Rx         00C9  8  80 3C CA 00 00 00 10 08
 45324)     54512.5  Rx         00C9  8  80 3C B6 07 00 00 10 08
 45363)     54524.7  Rx         00C9  8  80 3C 7D 0A 00 00 10 08
 45397)     54537.3  Rx         00C9  8  80 3C 3E 0D 00 00 10 08
 45438)     54549.8  Rx         00C9  8  80 3B FF 00 00 00 10 08
 45463)     54562.3  Rx         00C9  8  80 3B DC 07 00 00 10 08
 45506)     54575.2  Rx         00C9  8  80 3B BE 0A 00 00 10 08
 45533)     54586.9  Rx         00C9  8  80 3B 98 0D 00 00 10 08
 45570)     54599.4  Rx         00C9  8  80 3B 69 00 00 00 10 08
 45598)     54612.4  Rx         00C9  8  80 3B 38 07 00 00 10 08
 45636)     54624.7  Rx         00C9  8  80 3B 3A 0A 00 00 10 08
 45673)     54638.0  Rx         00C9  8  80 3B 42 0D 00 00 10 08
 45713)     54649.7  Rx         00C9  8  80 3B 3A 00 00 00 10 08
 45739)     54662.0  Rx         00C9  8  80 3B 16 07 00 00 10 08
 45785)     54674.8  Rx         00C9  8  80 3B 1D 0A 00 00 10 08
 45813)     54687.1  Rx         00C9  8  80 3B 23 0D 00 00 10 08
 45852)     54699.9  Rx         00C9  8  80 3B 72 00 00 00 10 08
 45879)     54712.4  Rx         00C9  8  80 3B 78 07 00 00 10 08
 45922)     54725.5  Rx         00C9  8  80 3B 83 0A 00 00 10 08
 45952)     54737.1  Rx         00C9  8  80 3B A4 0D 00 00 10 08
 45993)     54749.6  Rx         00C9  8  80 3B D7 00 00 00 10 08
 46019)     54762.5  Rx         00C9  8  80 3B F8 07 00 00 10 08
 46059)     54774.8  Rx         00C9  8  80 3C 01 0A 00 00 10 08
 46088)     54787.7  Rx         00C9  8  80 3C 07 0D 00 00 10 08
 46126)     54799.5  Rx         00C9  8  80 3C 25 00 00 00 10 08
 46152)     54812.0  Rx         00C9  8  80 3C 41 07 00 00 10 08
 46195)     54825.5  Rx         00C9  8  80 3C 68 0A 00 00 10 08
 46225)     54837.7  Rx         00C9  8  80 3C 6B 0D 00 00 10 08
 46266)     54849.8  Rx         00C9  8  80 3C 64 00 00 00 10 08
 46291)     54862.0  Rx         00C9  8  80 3C 5B 07 00 00 10 08
 46336)     54875.2  Rx         00C9  8  80 3C 40 0A 00 00 10 08
 46363)     54887.8  Rx         00C9  8  80 3C 73 0D 00 00 10 08
 46400)     54899.8  Rx         00C9  8  80 3C 5E 00 00 00 10 08
 46430)     54912.0  Rx         00C9  8  80 3C 42 07 00 00 10 08
 46474)     54924.9  Rx         00C9  8  80 3C 2B 0A 00 00 10 08
 46507)     54937.6  Rx         00C9  8  80 3C 25 0D 00 00 10 08
 46555)     54950.2  Rx         00C9  8  80 3C 1A 00 00 00 10 08
 46580)     54962.4  Rx         00C9  8  80 3B FB 07 00 00 10 08
 46622)     54975.0  Rx         00C9  8  80 3B D1 0A 00 00 10 08
 46649)     54986.9  Rx         00C9  8  80 3B BF 0D 00 00 10 08
 46687)     54999.7  Rx         00C9  8  80 3B AE 00 00 00 10 08
 46716)     55012.9  Rx         00C9  8  80 3B A1 07 00 00 10 08
 46758)     55025.6  Rx         00C9  8  80 3B 7E 0A 00 00 10 08
 46788)     55037.7  Rx         00C9  8  80 3B 44 0D 00 00 10 08
 46827)     55049.3  Rx         00C9  8  80 3B 20 00 00 00 10 07
 46853)     55062.2  Rx         00C9  8  80 3B 08 07 00 00 10 07
 46898)     55075.5  Rx         00C9  8  80 3B 11 0A 00 01 10 07
 46924)     55087.0  Rx         00C9  8  80 3A E3 0D 00 01 10 07
 46961)     55100.1  Rx         00C9  8  80 3A A8 00 00 01 10 07
 46988)     55112.4  Rx         00C9  8  80 3A 95 07 00 01 10 07
 47029)     55125.2  Rx         00C9  8  80 3A AA 0A 00 01 10 07
 47061)     55137.3  Rx         00C9  8  80 3A 88 0D 00 01 10 07
 47101)     55149.6  Rx         00C9  8  80 3A 55 00 00 01 10 07
 47129)     55162.1  Rx         00C9  8  80 3A 42 07 00 01 10 07
 47175)     55175.4  Rx         00C9  8  80 39 F6 0A 00 01 10 07
 47195)     55187.6  Rx         00C9  8  80 3A 36 0D 00 01 10 07
 47234)     55199.6  Rx         00C9  8  80 3A 03 00 00 01 10 07
 47261)     55212.7  Rx         00C9  8  80 39 CE 07 00 01 10 07
 47304)     55225.6  Rx         00C9  8  80 39 E2 0A 00 01 10 07
 47335)     55238.2  Rx         00C9  8  80 39 C7 0D 00 01 10 07
 47376)     55249.8  Rx         00C9  8  80 39 BD 00 00 01 10 07
 47400)     55262.2  Rx         00C9  8  80 39 A1 07 00 01 10 07
 47442)     55274.9  Rx         00C9  8  80 39 7E 0A 00 01 10 07
 47470)     55287.1  Rx         00C9  8  80 39 99 0D 00 01 10 07
 47508)     55299.7  Rx         00C9  8  80 39 76 00 00 01 10 07
 47535)     55312.0  Rx         00C9  8  80 39 48 07 00 01 10 07
 47574)     55324.8  Rx         00C9  8  80 39 3B 0A 00 01 10 07
 47608)     55337.7  Rx         00C9  8  80 39 26 0D 00 01 10 07
 47648)     55349.9  Rx         00C9  8  80 39 26 00 00 01 10 07
 47674)     55362.3  Rx         00C9  8  80 38 FE 07 00 01 10 07
 47718)     55375.5  Rx         00C9  8  80 38 D3 0A 00 01 10 07
 47744)     55387.2  Rx         00C9  8  80 38 DC 0D 00 01 10 07
 47782)     55400.2  Rx         00C9  8  80 38 C2 00 00 01 10 07
 47813)     55412.2  Rx         00C9  8  80 38 99 07 00 01 10 07
 47864)     55426.6  Rx         00C9  8  80 38 75 0A 00 01 10 07
 47891)     55437.4  Rx         00C9  8  80 38 64 0D 00 01 10 07
 47944)     55450.7  Rx         00C9  8  80 38 52 00 00 01 10 07
 47971)     55462.1  Rx         00C9  8  80 38 1E 07 00 01 10 07
 48016)     55475.5  Rx         00C9  8  80 37 F3 0A 00 01 10 07
 48044)     55487.3  Rx         00C9  8  80 37 EF 0D 00 01 10 07
 48084)     55500.1  Rx         00C9  8  80 37 CF 00 00 01 10 07
 48112)     55512.2  Rx         00C9  8  80 37 95 07 00 01 10 07
 48156)     55525.7  Rx         00C9  8  80 37 64 0A 00 01 10 07
 48186)     55537.6  Rx         00C9  8  80 37 4D 0D 00 01 10 07
 48227)     55549.7  Rx         00C9  8  80 37 2C 00 00 01 10 07
 48252)     55562.3  Rx         00C9  8  80 37 07 07 00 01 10 07
 48293)     55575.0  Rx         00C9  8  80 36 C2 0A 00 01 10 07
 48321)     55587.1  Rx         00C9  8  80 36 A7 0D 00 01 10 07
 48359)     55599.7  Rx         00C9  8  80 36 77 00 00 01 10 07
 48386)     55612.2  Rx         00C9  8  80 36 39 07 00 01 10 07
 48427)     55625.3  Rx         00C9  8  80 36 13 0A 00 01 10 07
 48461)     55637.9  Rx         00C9  8  80 35 F2 0D 00 01 10 07
 48501)     55649.8  Rx         00C9  8  80 35 B8 00 00 01 10 07
 48528)     55662.6  Rx         00C9  8  80 35 81 07 00 01 10 07
 48574)     55675.2  Rx         00C9  8  80 35 5C 0A 00 01 10 07
 48602)     55687.1  Rx         00C9  8  80 35 3A 0D 00 01 10 07
 48641)     55699.7  Rx         00C9  8  80 34 F8 00 00 01 10 07
 48668)     55712.7  Rx         00C9  8  80 34 D6 07 00 01 10 07
 48711)     55725.8  Rx         00C9  8  80 34 B9 0A 00 01 10 07
 48740)     55737.6  Rx         00C9  8  80 34 9C 0D 00 01 10 07
 48782)     55749.7  Rx         00C9  8  80 34 49 00 00 01 10 07
 48807)     55762.2  Rx         00C9  8  80 34 2D 07 00 01 10 07
 48850)     55775.5  Rx         00C9  8  80 33 F5 0A 00 01 10 07
 48877)     55787.8  Rx         00C9  8  80 33 BB 0D 00 01 10 07
 48914)     55799.7  Rx         00C9  8  80 33 A5 00 00 01 10 07
 48942)     55812.3  Rx         00C9  8  80 33 73 07 00 01 10 07
 48984)     55825.8  Rx         00C9  8  80 33 33 0A 00 01 10 07
 49014)     55837.4  Rx         00C9  8  80 33 16 0D 00 01 10 07
 49055)     55849.7  Rx         00C9  8  80 32 EE 00 00 01 10 07
 49080)     55862.5  Rx         00C9  8  80 32 AE 07 00 01 10 07
 49123)     55875.0  Rx         00C9  8  80 32 92 0A 00 01 10 07
 49151)     55887.2  Rx         00C9  8  80 32 67 0D 00 01 10 07
 49189)     55899.8  Rx         00C9  8  80 32 26 00 00 01 10 07
 49219)     55912.2  Rx         00C9  8  80 32 06 07 00 01 10 07
 49264)     55925.2  Rx         00C9  8  80 31 DF 0A 00 01 10 07
 49297)     55937.6  Rx         00C9  8  80 31 9B 0D 00 01 10 07
 49343)     55949.8  Rx         00C9  8  80 31 7C 00 00 01 10 08
 49368)     55962.3  Rx         00C9  8  80 31 4C 07 00 01 10 08
 49412)     55975.7  Rx         00C9  8  80 31 09 0A 00 01 10 08
 49438)     55987.2  Rx         00C9  8  80 30 D4 0D 00 01 10 08
 49477)     55999.8  Rx         00C9  8  80 30 B7 00 00 01 10 08
 49504)     56012.4  Rx         00C9  8  80 30 71 07 00 01 10 08
 49544)     56025.2  Rx         00C9  8  80 30 52 0A 00 01 10 08
 49576)     56038.1  Rx         00C9  8  80 30 14 0D 00 01 10 08
 49615)     56049.8  Rx         00C9  8  80 2F DA 00 00 01 10 07
 49641)     56062.6  Rx         00C9  8  80 2F B5 07 00 01 10 07
 49682)     56075.1  Rx         00C9  8  80 2F 87 0A 00 01 10 07
 49711)     56087.5  Rx         00C9  8  80 2F 3D 0D 00 01 10 07
 49748)     56100.0  Rx         00C9  8  80 2F 12 00 00 01 10 07
 49776)     56112.4  Rx         00C9  8  80 2E C8 07 00 01 10 07
 49814)     56125.0  Rx         00C9  8  80 2E 8C 0A 00 01 10 07
 49848)     56138.0  Rx         00C9  8  80 2E 68 0D 00 01 10 07
 49889)     56149.8  Rx         00C9  8  80 2E 2A 00 00 01 10 07
 49916)     56162.7  Rx         00C9  8  80 2E 04 07 00 01 10 07
 49962)     56175.3  Rx         00C9  8  80 2D BD 0A 00 01 10 07
 49989)     56187.3  Rx         00C9  8  80 2D 93 0D 00 01 10 07
 50028)     56199.8  Rx         00C9  8  80 2D 60 00 00 01 10 07
 50055)     56212.7  Rx         00C9  8  80 2D 18 07 00 01 10 07
 50096)     56225.4  Rx         00C9  8  80 2C F8 0A 00 01 10 07
 50128)     56237.7  Rx         00C9  8  80 2C BB 0D 00 01 10 07
 50169)     56249.9  Rx         00C9  8  80 2C 86 00 00 01 10 07
 50194)     56262.4  Rx         00C9  8  80 2C 52 07 00 01 10 07
 50235)     56275.1  Rx         00C9  8  80 2C 12 0A 00 01 10 07
 50264)     56287.8  Rx         00C9  8  80 2B EA 0D 00 01 10 07
 50302)     56299.9  Rx         00C9  8  80 2B 9F 00 00 01 10 07
 50329)     56312.3  Rx         00C9  8  80 2B 6F 07 00 01 10 07
 50369)     56325.2  Rx         00C9  8  80 2B 38 0A 00 01 10 07
 50401)     56337.7  Rx         00C9  8  80 2B 01 0D 00 01 10 07
 50442)     56349.9  Rx         00C9  8  80 2A D6 00 00 01 10 07
 50467)     56362.7  Rx         00C9  8  80 2A 8E 07 00 01 10 07
 50511)     56375.6  Rx         00C9  8  80 2A 6C 0A 00 01 10 07
 50538)     56387.4  Rx         00C9  8  80 2A 23 0D 00 01 10 07
 50576)     56399.8  Rx         00C9  8  80 29 FD 00 00 01 10 07
 50607)     56412.3  Rx         00C9  8  80 29 DD 07 00 01 10 07
 50654)     56425.9  Rx         00C9  8  80 29 8D 0A 00 01 10 07
 50685)     56437.6  Rx         00C9  8  80 29 5A 0D 00 01 10 07
 50738)     56449.9  Rx         00C9  8  80 29 21 00 00 01 10 07
 50766)     56462.4  Rx         00C9  8  80 28 F8 07 00 01 10 07
 50813)     56475.8  Rx         00C9  8  80 28 B2 0A 00 01 10 07
 50843)     56487.3  Rx         00C9  8  80 28 93 0D 00 01 10 07
 50883)     56500.2  Rx         00C9  8  80 28 4C 00 00 01 10 07
 50911)     56512.4  Rx         00C9  8  80 28 2B 07 00 01 10 07
 50951)     56525.3  Rx         00C9  8  80 27 E4 0A 00 01 10 07
 50984)     56537.8  Rx         00C9  8  80 27 BC 0D 00 01 10 07
 51024)     56550.0  Rx         00C9  8  80 27 7F 00 00 01 10 07
 51049)     56562.4  Rx         00C9  8  80 27 4E 07 00 01 10 07
 51090)     56575.2  Rx         00C9  8  80 27 39 0A 00 01 10 07
 51119)     56587.4  Rx         00C9  8  80 26 F0 0D 00 01 10 07
 51157)     56600.1  Rx         00C9  8  80 26 B7 00 00 01 10 07
 51184)     56612.4  Rx         00C9  8  80 26 86 07 00 01 10 07
 51226)     56625.9  Rx         00C9  8  80 26 4E 0A 00 01 10 07
 51258)     56638.1  Rx         00C9  8  80 26 17 0D 00 01 10 07
 51300)     56650.8  Rx         00C9  8  80 25 E6 00 00 01 10 07
 51326)     56662.7  Rx         00C9  8  80 25 B5 07 00 01 10 07
 51374)     56675.9  Rx         00C9  8  80 25 83 0A 00 01 10 07
 51400)     56687.8  Rx         00C9  8  80 25 50 0D 00 01 10 07
 51439)     56700.8  Rx         00C9  8  80 25 1B 00 00 01 10 07
 51466)     56712.9  Rx         00C9  8  80 24 E5 07 00 01 10 07
 51504)     56725.3  Rx         00C9  8  80 24 B1 0A 00 01 10 07
 51537)     56737.7  Rx         00C9  8  80 24 80 0D 00 01 10 07
 51579)     56749.9  Rx         00C9  8  80 24 4D 00 00 01 10 06
 51604)     56762.4  Rx         00C9  8  80 24 07 07 00 01 10 06
 51645)     56775.2  Rx         00C9  8  80 23 FA 0A 00 01 10 06
 51673)     56787.3  Rx         00C9  8  80 23 BD 0D 00 01 10 06
 51711)     56800.0  Rx         00C9  8  80 23 7D 00 00 01 10 06
 51738)     56812.7  Rx         00C9  8  80 23 52 07 00 01 10 06
 51778)     56825.3  Rx         00C9  8  80 23 11 0A 00 01 10 06
 51811)     56838.1  Rx         00C9  8  80 22 EB 0D 00 01 10 06
 51851)     56850.0  Rx         00C9  8  80 22 AE 00 00 01 10 06
 51876)     56862.5  Rx         00C9  8  80 22 8F 07 00 01 10 06
 51917)     56875.2  Rx         00C9  8  80 22 4D 0A 00 01 10 06
 51948)     56887.4  Rx         00C9  8  80 22 23 0D 00 01 10 06
 51986)     56900.0  Rx         00C9  8  80 21 E7 00 00 01 10 06
 52012)     56913.6  Rx         00C9  8  80 21 B2 07 00 01 10 06
 52055)     56925.4  Rx         00C9  8  80 21 82 0A 00 01 10 06
 52088)     56937.6  Rx         00C9  8  80 21 53 0D 00 01 10 06
 52135)     56950.1  Rx         00C9  8  80 21 22 00 00 01 10 05
 52160)     56962.6  Rx         00C9  8  80 20 E6 07 00 01 10 05
 52201)     56975.2  Rx         00C9  8  80 20 C2 0A 00 01 10 05
 52230)     56987.4  Rx         00C9  8  80 20 7E 0D 00 01 10 05
 52268)     57000.0  Rx         00C9  8  80 20 52 00 00 01 10 05
 52296)     57012.9  Rx         00C9  8  80 20 1A 07 00 01 10 05
 52335)     57025.3  Rx         00C9  8  80 20 01 0A 00 01 10 05
 52368)     57038.1  Rx         00C9  8  80 1F C0 0D 00 01 10 05
 52409)     57050.1  Rx         00C9  8  80 1F 84 00 00 01 10 05
 52433)     57062.5  Rx         00C9  8  80 1F 60 07 00 01 10 05
 52476)     57075.4  Rx         00C9  8  80 1F 22 0A 00 01 10 05
 52503)     57087.8  Rx         00C9  8  80 1E EF 0D 00 01 10 05
 52541)     57100.0  Rx         00C9  8  80 1E B2 00 00 01 10 05
 52568)     57112.8  Rx         00C9  8  80 1E 85 07 00 01 10 05
 52611)     57126.4  Rx         00C9  8  80 1E 5F 0A 00 01 10 05
 52641)     57137.8  Rx         00C9  8  80 1E 25 0D 00 01 10 05
 52681)     57150.0  Rx         00C9  8  80 1D FC 00 00 01 10 06
 52708)     57162.5  Rx         00C9  8  80 1D B4 07 00 01 10 06
 52755)     57175.7  Rx         00C9  8  80 1D 8E 0A 00 01 10 06
 52782)     57187.5  Rx         00C9  8  80 1D 67 0D 00 01 10 06
 52821)     57200.1  Rx         00C9  8  80 1D 2A 00 00 01 10 06
 52848)     57213.2  Rx         00C9  8  80 1C F6 07 00 01 10 06
 52888)     57225.3  Rx         00C9  8  80 1C CD 0A 00 01 10 06
 52920)     57238.2  Rx         00C9  8  80 1C 8D 0D 00 01 10 06
 52962)     57250.0  Rx         00C9  8  80 1C 6A 00 00 01 10 04
 52987)     57262.6  Rx         00C9  8  80 1C 34 07 00 01 10 04
 53028)     57275.3  Rx         00C9  8  80 1B FC 0A 00 01 10 04
 53057)     57288.2  Rx         00C9  8  80 1B CF 0D 00 01 10 04
 53094)     57300.0  Rx         00C9  8  80 1B 91 00 00 01 10 04
 53121)     57312.9  Rx         00C9  8  80 1B 59 07 00 01 10 04
 53161)     57325.3  Rx         00C9  8  80 1B 2D 0A 00 01 10 04
 53194)     57337.9  Rx         00C9  8  80 1A ED 0D 00 01 10 04
 53235)     57350.1  Rx         00C9  8  80 1B 09 00 00 01 10 05
 53260)     57362.5  Rx         00C9  8  80 1B 21 07 00 01 10 05
 53301)     57375.3  Rx         00C9  8  80 1B 44 0A 00 01 10 05
 53330)     57387.9  Rx         00C9  8  80 1B 60 0D 00 01 10 05
 53368)     57400.1  Rx         00C9  8  80 1B 64 00 00 01 10 05
 53399)     57412.5  Rx         00C9  8  80 1B 6E 07 00 01 10 05
 53447)     57426.2  Rx         00C9  8  80 1B 89 0A 00 01 10 05
